(1572903672.038994) can0 0C0#0000000000000000
(1572903672.049090) can0 0C0#0000000000000000
(1572903672.059187) can0 0C0#0000000000000000
(1572903672.069251) can0 0C0#0000000000000000
(1572903672.079344) can0 0C0#0000000000000000
(1572903672.089380) can0 0C0#0000000000000000
(1572903672.099475) can0 0C0#0000000000000000
(1572903672.109511) can0 0C0#0000000000000000
(1572903672.119604) can0 0C0#0000000000000000
(1572903672.125006) can0 0C1#010001000055
(1572903672.125640) can0 036#00
(1572903672.126296) can0 032#00002701190100
(1572903672.129669) can0 0C0#0000000000000000
(1572903672.139705) can0 0C0#0000000000000000
(1572903672.149796) can0 0C0#0000000000000000
(1572903672.159836) can0 0C0#0000000000000000
(1572903672.169927) can0 0C0#0000000000000000
(1572903672.179973) can0 0C0#0000000000000000
(1572903672.190064) can0 0C0#0000000000000000
(1572903672.193577) can0 0C1#010001000055
(1572903672.194213) can0 036#03
(1572903672.194869) can0 032#00002A011C0100
(1572903672.200121) can0 0C0#0000000000000000
(1572903672.210206) can0 0C0#0000000000000000
(1572903672.220236) can0 0C0#0000000000000000
(1572903672.230273) can0 0C0#0000000000000000
(1572903672.239734) can0 0AD#7C00000000000000
(1572903672.239979) can0 0AC#000081FF04000000
(1572903672.240229) can0 0AB#0000000000000000
(1572903672.240473) can0 0AA#0000090000008000
(1572903672.240712) can0 0A8#2200ABE90B0007FF
(1572903672.240957) can0 0A7#1A000C00FFFFF7FF
(1572903672.241197) can0 0A6#7BFF8BFF70FF0000
(1572903672.241431) can0 0A5#270212001D00E1D0
(1572903672.241681) can0 0A4#0000000000000000
(1572903672.241909) can0 0A3#ED01D01EEEB9F71E
(1572903672.242158) can0 0C0#0000000000000000
(1572903672.248792) can0 0AD#2100000000000000
(1572903672.249036) can0 0AC#000088FF07000000
(1572903672.249286) can0 0AB#0000000000000000
(1572903672.249530) can0 0AA#0000090000008000
(1572903672.249768) can0 0A8#2200ABE9100014FF
(1572903672.250010) can0 0A7#190002000000FCFF
(1572903672.250249) can0 0A6#7DFF97FF78FF0000
(1572903672.250489) can0 0A5#09020000FFFF8CFD
(1572903672.250739) can0 0A4#0000000000000000
(1572903672.250963) can0 0A3#EDBDD71EEEB9F71E
(1572903672.251212) can0 0C0#0000000000000000
(1572903672.255170) can0 0C1#010001000055
(1572903672.255806) can0 036#00
(1572903672.256466) can0 032#00002D011F0100
(1572903672.257792) can0 0AD#0200000000000000
(1572903672.258036) can0 0AC#000090FF0A000000
(1572903672.258286) can0 0AB#0000000000000000
(1572903672.258529) can0 0AA#0000090000008000
(1572903672.258767) can0 0A8#2200ABE9140024FF
(1572903672.259013) can0 0A7#160000000200FEFF
(1572903672.259253) can0 0A6#87FF9DFF80FF0000
(1572903672.259497) can0 0A5#0002FFFFFEFFC327
(1572903672.259747) can0 0A4#0000000000000000
(1572903672.259971) can0 0A3#EEBDD71EEEB9F71E
(1572903672.260754) can0 0C0#0000000000000000
(1572903672.266794) can0 0AD#0200000000000000
(1572903672.267038) can0 0C2#0100010000550000
(1572903672.267280) can0 0AC#000097FF0D000000
(1572903672.267530) can0 0AB#0000000000000000
(1572903672.267774) can0 0AA#0000090000008000
(1572903672.268012) can0 0A8#2200ABE916002EFF
(1572903672.268258) can0 0A7#18000000FDFFF5FF
(1572903672.268498) can0 0A6#8EFFA0FF8AFF0000
(1572903672.268734) can0 0A5#FD010000FFFFA54F
(1572903672.268983) can0 0A4#0000000000000000
(1572903672.269208) can0 0A3#EEBDD71EEEB9F71E
(1572903672.270537) can0 0C0#0000000000000000
(1572903672.275791) can0 0AD#0200000000000000
(1572903672.276035) can0 0AC#0000A3FF10000000
(1572903672.276285) can0 0AB#0000000000000000
(1572903672.276529) can0 0AA#0000090000008000
(1572903672.276763) can0 0A8#2200ABE9150048FF
(1572903672.277011) can0 0A7#18000000FFFFF9FF
(1572903672.277248) can0 0A6#9CFFABFF93FF0000
(1572903672.277487) can0 0A5#FC01000000005775
(1572903672.277736) can0 0A4#0000000000000000
(1572903672.277960) can0 0A3#EEBDD71EEEB9F71E
(1572903672.280590) can0 0C0#0000000000000000
(1572903672.284788) can0 0AD#0100000000000000
(1572903672.285032) can0 0AC#0000A7FF13000000
(1572903672.285282) can0 0AB#0000000000000000
(1572903672.285526) can0 0AA#0000090000008000
(1572903672.285764) can0 0A8#2200ABE9130051FF
(1572903672.286008) can0 0A7#18000000FAFFF7FF
(1572903672.286246) can0 0A6#A0FFB0FF9AFF0000
(1572903672.286489) can0 0A5#FB0100000000F898
(1572903672.286739) can0 0A4#0000000000000000
(1572903672.286963) can0 0A3#EEBDD71EEEB9F71E
(1572903672.290678) can0 0C0#0000000000000000
(1572903672.293962) can0 0AD#3D02000000000000
(1572903672.294208) can0 0AC#0000420016000000
(1572903672.294458) can0 0AB#0000000000000000
(1572903672.294702) can0 0AA#0000090000008000
(1572903672.294942) can0 0A8#2200ABE97D008200
(1572903672.295192) can0 0A7#1B0000000000F9FF
(1572903672.295428) can0 0A6#9AFFB1FF9AFF0000
(1572903672.295666) can0 0A5#080BDFFE1FFE7EBB
(1572903672.295916) can0 0A4#0000000000000000
(1572903672.296139) can0 0A3#EDBDD71EEEB9F71E
(1572903672.300734) can0 0C0#0000000000000000
(1572903672.302870) can0 0AD#A803000000000000
(1572903672.303114) can0 0AC#0000560019000000
(1572903672.303364) can0 0AB#0000000000000000
(1572903672.303607) can0 0AA#0000090000008000
(1572903672.303841) can0 0A8#2200ABE9C4FFA900
(1572903672.304081) can0 0A7#1A0000000B00FCFF
(1572903672.304315) can0 0A6#9CFFB0FF9CFF0000
(1572903672.304545) can0 0A5#7A089EFF5CFF4DDB
(1572903672.304794) can0 0A4#0000000000000000
(1572903672.305019) can0 0A3#EDBDD71EEEB9F71E
(1572903672.310781) can0 0C0#0000000000000000
(1572903672.311865) can0 0AD#A301000000000000
(1572903672.312111) can0 0AC#00004C001C000000
(1572903672.312361) can0 0AB#0000000000000000
(1572903672.312605) can0 0AA#0000090000008000
(1572903672.312843) can0 0A8#2200ABE9EDFF9500
(1572903672.313087) can0 0A7#1A000000FFFFFCFF
(1572903672.313323) can0 0A6#ACFFBDFFA5FF0000
(1572903672.313557) can0 0A5#F308FEFFFDFFAAF9
(1572903672.313807) can0 0A4#0000000000000000
(1572903672.314032) can0 0A3#EDB9D71EEFB9F71E
(1572903672.320812) can0 0C0#0000000000000000
(1572903672.321060) can0 0AD#2000000000000000
(1572903672.321308) can0 0AC#00004F001F000000
(1572903672.321557) can0 0AB#0000000000000000
(1572903672.321802) can0 0AA#0000090000008000
(1572903672.322039) can0 0A8#2200ABE9F4FF9C00
(1572903672.322279) can0 0A7#19000000F8FFFCFF
(1572903672.322515) can0 0A6#ACFFB9FFAAFF0000
(1572903672.322751) can0 0A5#1809040007005A16
(1572903672.323001) can0 0A4#0000000000000000
(1572903672.323227) can0 0A3#EDB9D71EEFB9F71E
(1572903672.323934) can0 0C1#010001000055
(1572903672.324570) can0 036#00
(1572903672.325230) can0 032#00002A011C0100
(1572903672.326788) can0 0C2#0100010000550000
(1572903672.329872) can0 0AD#1800000000000000
(1572903672.330110) can0 0AE#1000B41911051820
(1572903672.330359) can0 0AC#0000430022000000
(1572903672.330609) can0 0AB#0000000000000000
(1572903672.330853) can0 0AA#0400090000008000
(1572903672.331087) can0 0A9#9700FA00FF016E04
(1572903672.331325) can0 0A8#2200ABE9FAFF8500
(1572903672.331569) can0 0A7#18000000FDFFF9FF
(1572903672.331807) can0 0A6#B6FFC5FFAEFF0000
(1572903672.332049) can0 0A5#2009020002007831
(1572903672.332299) can0 0A4#0000000000000000
(1572903672.332523) can0 0A3#EDBDD71EEEB9F71E
(1572903672.332755) can0 0A2#F0D8F0D865050000
(1572903672.332991) can0 0A1#B7001C081208F0D8
(1572903672.333231) can0 0A0#700070007000B700
(1572903672.333480) can0 0C0#0000000000000000
(1572903672.338866) can0 0AD#1100000000000000
(1572903672.339110) can0 0AC#0000480025000000
(1572903672.339360) can0 0AB#0000000000000000
(1572903672.339604) can0 0AA#0400090000000000
(1572903672.339844) can0 0A8#2200ABE9F6FF8E00
(1572903672.340089) can0 0A7#190000000000F7FF
(1572903672.340325) can0 0A6#B4FFBDFFB1FF0000
(1572903672.340561) can0 0A5#230901000000184B
(1572903672.340811) can0 0A4#0000000000000000
(1572903672.341035) can0 0A3#EDBDD71EEEB9F71E
(1572903672.341308) can0 0C0#0000000000000000
(1572903672.347864) can0 0AD#0600000000000000
(1572903672.348112) can0 0AC#0000400028000000
(1572903672.348362) can0 0AB#0000000000000000
(1572903672.348606) can0 0AA#0400090000000000
(1572903672.348843) can0 0A8#2200ABE9F6FF7D00
(1572903672.349088) can0 0A7#18000000FDFFF7FF
(1572903672.349327) can0 0A6#BEFFC4FFBBFF0000
(1572903672.349567) can0 0A5#2409000000005163
(1572903672.349817) can0 0A4#0000000000000000
(1572903672.350041) can0 0A3#EDBDD71EEEB9F71E
(1572903672.351003) can0 0C0#0000000000000000
(1572903672.356954) can0 0AD#0100000000000000
(1572903672.357198) can0 0AC#000038002B000000
(1572903672.357448) can0 0AB#0000000000000000
(1572903672.357692) can0 0AA#0400090000000000
(1572903672.357932) can0 0A8#2200ABE9F8FF6E00
(1572903672.358176) can0 0A7#18000000FDFFF9FF
(1572903672.358416) can0 0A6#BFFFCAFFBFFF0000
(1572903672.358652) can0 0A5#230900000000667A
(1572903672.358903) can0 0A4#0000000000000000
(1572903672.359126) can0 0A3#EEBDD71EEEB9F71E
(1572903672.361052) can0 0C0#0000000000000000
(1572903672.365864) can0 0AD#0100000000000000
(1572903672.366112) can0 0AC#000039002E000000
(1572903672.366362) can0 0AB#0000000000000000
(1572903672.366605) can0 0AA#0400090000000000
(1572903672.366845) can0 0A8#2200ABE9F7FF7000
(1572903672.367085) can0 0A7#1B000000FAFFFCFF
(1572903672.367323) can0 0A6#C5FFCAFFBCFF0000
(1572903672.367563) can0 0A5#230900000000D28F
(1572903672.367813) can0 0A4#0000000000000000
(1572903672.368036) can0 0A3#EEBDD71EEEB9F71E
(1572903672.371091) can0 0C0#0000000000000000
(1572903672.374861) can0 0AD#0100000000000000
(1572903672.375107) can0 0AC#0000360031000000
(1572903672.375357) can0 0AB#0000000000000000
(1572903672.375601) can0 0AA#0400090000000000
(1572903672.375841) can0 0A8#2200ABE9F7FF6A00
(1572903672.376087) can0 0A7#16000000FDFF0000
(1572903672.376325) can0 0A6#C9FFCCFFC9FF0000
(1572903672.376564) can0 0A5#2209000000003CA4
(1572903672.376814) can0 0A4#0000000000000000
(1572903672.377038) can0 0A3#EEBDD71EEEB9F71E
(1572903672.381192) can0 0C0#0000000000000000
(1572903672.383860) can0 0AD#0200000000000000
(1572903672.384106) can0 0AC#0000330034000000
(1572903672.384356) can0 0AB#0000000000000000
(1572903672.384600) can0 0AA#0400090000000000
(1572903672.384840) can0 0A8#2200ABE9FAFF6A00
(1572903672.385086) can0 0A7#18000000FDFFF5FF
(1572903672.385328) can0 0A6#C6FFCFFFC1FF0000
(1572903672.385567) can0 0A5#22090000000087B7
(1572903672.385817) can0 0A4#0000000000000000
(1572903672.386045) can0 0A3#EEBDD71EEEB9071F
(1572903672.386252) can0 0C1#010001000055
(1572903672.386778) can0 0C2#0100010000550000
(1572903672.387026) can0 036#00
(1572903672.387683) can0 032#00002D012A0100
(1572903672.391213) can0 0C0#0000000000000000
(1572903672.392859) can0 0AD#0100000000000000
(1572903672.393105) can0 0AC#00002C0037000000
(1572903672.393355) can0 0AB#0000000000000000
(1572903672.393599) can0 0AA#0400090000000000
(1572903672.393838) can0 0A8#2200ABE9FAFF5600
(1572903672.394080) can0 0A7#18000000FAFFF9FF
(1572903672.394322) can0 0A6#D2FFD7FFCFFF0000
(1572903672.394562) can0 0A5#240900000000C7C9
(1572903672.394812) can0 0A4#0000000000000000
(1572903672.395038) can0 0A3#EEB9D71EEEB9071F
(1572903672.401277) can0 0C0#0000000000000000
(1572903672.401857) can0 0AD#0100000000000000
(1572903672.402106) can0 0AC#00002C003A000000
(1572903672.402355) can0 0AB#0000000000000000
(1572903672.402598) can0 0AA#0400090000000000
(1572903672.402836) can0 0A8#2200ABE9F9FF5700
(1572903672.403082) can0 0A7#1A000000FAFFF9FF
(1572903672.403320) can0 0A6#D2FFD7FFD2FF0000
(1572903672.403560) can0 0A5#22090000000003DB
(1572903672.403810) can0 0A4#0000000000000000
(1572903672.404034) can0 0A3#EDB9D71EEEB9F71E
(1572903672.410856) can0 0AD#0100000000000000
(1572903672.411107) can0 0AC#000025003D000000
(1572903672.411356) can0 0AB#0000000000000000
(1572903672.411600) can0 0AA#0400090000000000
(1572903672.411837) can0 0A8#2200ABE9FCFF4900
(1572903672.412081) can0 0A7#1C000000FAFFF5FF
(1572903672.412321) can0 0A6#D7FFDFFFD2FF0000
(1572903672.412561) can0 0A5#22090000000050EB
(1572903672.412811) can0 0A4#0000000000000000
(1572903672.413035) can0 0A3#EDBDD71EEEB9F71E
(1572903672.413284) can0 0C0#0000000000000000
(1572903672.419944) can0 0AD#0000000000000000
(1572903672.420192) can0 0AC#00002A0040000000
(1572903672.420442) can0 0AB#0000000000000000
(1572903672.420686) can0 0AA#0400090000000000
(1572903672.420924) can0 0A8#2200ABE9F9FF5200
(1572903672.421167) can0 0A7#1A0000000000FCFF
(1572903672.421407) can0 0A6#DAFFDBFFD2FF0000
(1572903672.421646) can0 0A5#230900000000D8FA
(1572903672.421895) can0 0A4#0000000000000000
(1572903672.422119) can0 0A3#EDBDD71EEEB9F71E
(1572903672.422368) can0 0C0#0000000000000000
(1572903672.428854) can0 0AD#FFFF000000000000
(1572903672.429092) can0 0AE#1000B41911051820
(1572903672.429340) can0 0AC#00001F0043000000
(1572903672.429590) can0 0AB#0000000000000000
(1572903672.429834) can0 0AA#0400090000000000
(1572903672.430068) can0 0A9#9700FB00FF016F04
(1572903672.430308) can0 0A8#2200ABE9FBFF3C00
(1572903672.430552) can0 0A7#1A000000FDFFF9FF
(1572903672.430792) can0 0A6#E0FFE3FFD5FF0000
(1572903672.431032) can0 0A5#2409000000004209
(1572903672.431281) can0 0A4#0000000000000000
(1572903672.431506) can0 0A3#EDBDD71EEEB9F71E
(1572903672.431738) can0 0A2#F0D8F0D865050000
(1572903672.431966) can0 0A1#B70049083908F0D8
(1572903672.432199) can0 0A0#AF00AF00AF00B600
(1572903672.432448) can0 0C0#0000000000000000
(1572903672.437852) can0 0AD#0000000000000000
(1572903672.438096) can0 0AC#0000250046000000
(1572903672.438346) can0 0AB#0000000000000000
(1572903672.438590) can0 0AA#0400090000000000
(1572903672.438830) can0 0A8#2200ABE9FEFF3E00
(1572903672.439076) can0 0A7#1A000000FAFFF9FF
(1572903672.439316) can0 0A6#DDFFE5FFD7FF0000
(1572903672.439554) can0 0A5#2309000000000117
(1572903672.439804) can0 0A4#0000000000000000
(1572903672.440027) can0 0A3#EEBDD71EEEB9F71E
(1572903672.441513) can0 0C0#0000000000000000
(1572903672.446849) can0 0AD#0100000000000000
(1572903672.447095) can0 0AC#0000280049000000
(1572903672.447345) can0 0AB#0000000000000000
(1572903672.447589) can0 0AA#0400090000000000
(1572903672.447824) can0 0A8#2200ABE9F8FF4E00
(1572903672.448070) can0 0A7#160000000200FEFF
(1572903672.448309) can0 0A6#D8FFD8FFDDFF0000
(1572903672.448550) can0 0A5#220900000000FF23
(1572903672.448800) can0 0A4#0000000000000000
(1572903672.449024) can0 0A3#EEBDD71EEEB9F71E
(1572903672.451609) can0 0C0#0000000000000000
(1572903672.453803) can0 0C1#010001000055
(1572903672.454437) can0 036#00
(1572903672.455101) can0 032#00002D011F0100
(1572903672.455847) can0 0AD#0000000000000000
(1572903672.456093) can0 0AC#000020004C000000
(1572903672.456343) can0 0AB#0000000000000000
(1572903672.456587) can0 0AA#0400090000000000
(1572903672.456827) can0 0A8#2200ABE9FDFF3E00
(1572903672.457073) can0 0A7#190000000000F7FF
(1572903672.457311) can0 0A6#DDFFE3FFDCFF0000
(1572903672.457550) can0 0A5#2309000000004530
(1572903672.457800) can0 0A4#0000000000000000
(1572903672.458024) can0 0A3#EEBDD71EEEB9F71E
(1572903672.458766) can0 0C2#0100010000550000
(1572903672.461653) can0 0C0#0000000000000000
(1572903672.464849) can0 0AD#FFFF000000000000
(1572903672.465091) can0 0AC#00001D004F000000
(1572903672.465341) can0 0AB#0000000000000000
(1572903672.465585) can0 0AA#0400090000000000
(1572903672.465823) can0 0A8#2200ABE901003900
(1572903672.466065) can0 0A7#160000000000F0FF
(1572903672.466303) can0 0A6#DDFFEBFFDEFF0000
(1572903672.466540) can0 0A5#230900000000DB3B
(1572903672.466791) can0 0A4#0000000000000000
(1572903672.467014) can0 0A3#EDBDD71EEEB9F71E
(1572903672.471694) can0 0C0#0000000000000000
(1572903672.473846) can0 0AD#0100000000000000
(1572903672.474092) can0 0AC#00001E0052000000
(1572903672.474342) can0 0AB#0000000000000000
(1572903672.474586) can0 0AA#0400090000000000
(1572903672.474822) can0 0A8#2200ABE9FEFF3B00
(1572903672.475064) can0 0A7#19000000FDFF0000
(1572903672.475304) can0 0A6#DFFFE6FFDAFF0000
(1572903672.475540) can0 0A5#230900000000D446
(1572903672.475790) can0 0A4#0000000000000000
(1572903672.476013) can0 0A3#EDBDD71EEEB9F71E
(1572903672.481790) can0 0C0#0000000000000000
(1572903672.482934) can0 0AD#FFFF000000000000
(1572903672.483180) can0 0AC#00001C0055000000
(1572903672.483430) can0 0AB#0000000000000000
(1572903672.483674) can0 0AA#0400090000000000
(1572903672.483914) can0 0A8#2200ABE9FEFF3800
(1572903672.484155) can0 0A7#1B000000FDFFFCFF
(1572903672.484397) can0 0A6#E0FFE8FFE2FF0000
(1572903672.484633) can0 0A5#2309000000004951
(1572903672.484883) can0 0A4#0000000000000000
(1572903672.485107) can0 0A3#EDBDD71EEEB9F71E
(1572903672.491839) can0 0C0#0000000000000000
(1572903672.492089) can0 0AD#FFFF000000000000
(1572903672.492335) can0 0AC#0000180058000000
(1572903672.492584) can0 0AB#0000000000000000
(1572903672.492829) can0 0AA#0400090000000000
(1572903672.493066) can0 0A8#2200ABE9FBFF2F00
(1572903672.493312) can0 0A7#1A0000000000FEFF
(1572903672.493554) can0 0A6#E8FFE9FFEFFF0000
(1572903672.493796) can0 0A5#230900000000FE5A
(1572903672.494046) can0 0A4#0000000000000000
(1572903672.494270) can0 0A3#EDBDD71EEEB9F71E
(1572903672.500842) can0 0AD#0100000000000000
(1572903672.501088) can0 0AC#000016005B000000
(1572903672.501338) can0 0AB#0000000000000000
(1572903672.501582) can0 0AA#0400090000000000
(1572903672.501819) can0 0A8#2200ABE9FCFF2C00
(1572903672.502067) can0 0A7#18000000FFFFF9FF
(1572903672.502307) can0 0A6#E9FFEAFFE5FF0000
(1572903672.502545) can0 0A5#2409000000003D64
(1572903672.502795) can0 0A4#0000000000000000
(1572903672.503019) can0 0A3#EDBDD71EEEB9F71E
(1572903672.503268) can0 0C0#0000000000000000
(1572903672.509838) can0 0AD#0000000000000000
(1572903672.510084) can0 0AC#000012005E000000
(1572903672.510334) can0 0AB#0000000000000000
(1572903672.510577) can0 0AA#0400090000000000
(1572903672.510817) can0 0A8#2200ABE900002400
(1572903672.511062) can0 0A7#1A000000FDFFF9FF
(1572903672.511301) can0 0A6#EBFFF1FFE7FF0000
(1572903672.511539) can0 0A5#230900000000FA6C
(1572903672.511789) can0 0A4#0000000000000000
(1572903672.512013) can0 0A3#EDBDD71EEEB9F71E
(1572903672.512294) can0 0C0#0000000000000000
(1572903672.515432) can0 0C1#010001000055
(1572903672.516058) can0 036#00
(1572903672.516730) can0 032#00002201190100
(1572903672.518840) can0 0AD#FFFF000000000000
(1572903672.519084) can0 0C2#0100010000550000
(1572903672.519330) can0 0AC#0000130061000000
(1572903672.519580) can0 0AB#0000000000000000
(1572903672.519824) can0 0AA#0400090000000000
(1572903672.520061) can0 0A8#2200ABE900002500
(1572903672.520305) can0 0A7#180000000000FCFF
(1572903672.520545) can0 0A6#E9FFF3FFEEFF0000
(1572903672.520783) can0 0A5#2309000000003E75
(1572903672.521033) can0 0A4#0000000000000000
(1572903672.521257) can0 0A3#EEBDD71EEEB9F71E
(1572903672.522258) can0 0C0#0000000000000000
(1572903672.527838) can0 0AD#0000000000000000
(1572903672.528076) can0 0AE#1000B41911051820
(1572903672.528324) can0 0AC#0000140064000000
(1572903672.528573) can0 0AB#0000000000000000
(1572903672.528818) can0 0AA#0400090000000000
(1572903672.529053) can0 0A9#9700FB00FF016204
(1572903672.529293) can0 0A8#2200ABE9FBFF2800
(1572903672.529539) can0 0A7#19000000FDFFFEFF
(1572903672.529777) can0 0A6#EDFFEBFFECFF0000
(1572903672.530019) can0 0A5#2309000000000C7D
(1572903672.530269) can0 0A4#0000000000000000
(1572903672.530493) can0 0A3#EDBDD71EEEB9F71E
(1572903672.530725) can0 0A2#F0D8F0D865050000
(1572903672.530952) can0 0A1#B70049083908F0D8
(1572903672.531188) can0 0A0#CB00CD00CD00B800
(1572903672.532161) can0 0C0#0000000000000000
(1572903672.536835) can0 0AD#FFFF000000000000
(1572903672.537081) can0 0AC#0000100067000000
(1572903672.537331) can0 0AB#0000000000000000
(1572903672.537575) can0 0AA#0400090000000000
(1572903672.537815) can0 0A8#2200ABE9FEFF2000
(1572903672.538055) can0 0A7#19000000FDFFF5FF
(1572903672.538295) can0 0A6#EEFFF1FFEDFF0000
(1572903672.538531) can0 0A5#2309000000006B84
(1572903672.538781) can0 0A4#0000000000000000
(1572903672.539004) can0 0A3#EDBDD71EEEB9F71E
(1572903672.542117) can0 0C0#0000000000000000
(1572903672.545921) can0 0AD#0100000000000000
(1572903672.546165) can0 0AC#000011006A000000
(1572903672.546415) can0 0AB#0000000000000000
(1572903672.546659) can0 0AA#0400090000000000
(1572903672.546899) can0 0A8#2200ABE9FDFF2000
(1572903672.547143) can0 0A7#19000000FFFFF7FF
(1572903672.547387) can0 0A6#ECFFEFFFEBFF0000
(1572903672.547625) can0 0A5#230900000000738B
(1572903672.547875) can0 0A4#0000000000000000
(1572903672.548099) can0 0A3#EEBDD71EEEB9F71E
(1572903672.552159) can0 0C0#0000000000000000
(1572903672.554832) can0 0AD#0100000000000000
(1572903672.555076) can0 0AC#000016006D000000
(1572903672.555326) can0 0AB#0000000000000000
(1572903672.555570) can0 0AA#0400090000000000
(1572903672.555810) can0 0A8#2200ABE9FFFF2B00
(1572903672.556054) can0 0A7#18000000FAFFF7FF
(1572903672.556296) can0 0A6#E8FFEDFFE7FF0000
(1572903672.556533) can0 0A5#230900000000F891
(1572903672.556783) can0 0A4#0000000000000000
(1572903672.557007) can0 0A3#EEBDD71EEEB9F71E
(1572903672.562204) can0 0C0#0000000000000000
(1572903672.563832) can0 0AD#0000000000000000
(1572903672.564079) can0 0AC#00000C0070000000
(1572903672.564329) can0 0AB#0000000000000000
(1572903672.564574) can0 0AA#0400090000000000
(1572903672.564813) can0 0A8#2200ABE900001E00
(1572903672.565055) can0 0A7#19000000FDFFF9FF
(1572903672.565293) can0 0A6#EEFFF4FFEEFF0000
(1572903672.565529) can0 0A5#2309000000002E98
(1572903672.565779) can0 0A4#0000000000000000
(1572903672.566005) can0 0A3#EDB9D71EEEB9071F
(1572903672.572264) can0 0C0#0000000000000000
(1572903672.572830) can0 0AD#0000000000000000
(1572903672.573076) can0 0AC#00000E0073000000
(1572903672.573326) can0 0AB#0000000000000000
(1572903672.573570) can0 0AA#0400090000000000
(1572903672.573809) can0 0A8#2200ABE900001E00
(1572903672.574053) can0 0A7#160000000000FCFF
(1572903672.574295) can0 0A6#EDFFF5FFEFFF0000
(1572903672.574533) can0 0A5#2309000000000D9E
(1572903672.574783) can0 0A4#0000000000000000
(1572903672.575007) can0 0A3#EDB9D71EEEB9F71E
(1572903672.581829) can0 0AD#0000000000000000
(1572903672.582075) can0 0AC#0000100076000000
(1572903672.582324) can0 0AB#0000000000000000
(1572903672.582569) can0 0AA#0400090000000000
(1572903672.582806) can0 0A8#2200ABE9FCFF1F00
(1572903672.583050) can0 0A7#1A000000FFFFF5FF
(1572903672.583290) can0 0A6#F0FFF0FFF3FF0000
(1572903672.583526) can0 0A5#2309000000009EA3
(1572903672.583776) can0 0A4#0000000000000000
(1572903672.584000) can0 0A3#EEB9D71EEEB9F71E
(1572903672.584207) can0 0C1#010001000055
(1572903672.584456) can0 0C0#0000000000000000
(1572903672.585034) can0 036#00
(1572903672.585694) can0 032#00002D01190100
(1572903672.590828) can0 0AD#FFFF000000000000
(1572903672.591072) can0 0C2#0100010000550000
(1572903672.591318) can0 0AC#0000100079000000
(1572903672.591568) can0 0AB#0000000000000000
(1572903672.591812) can0 0AA#0400090000000000
(1572903672.592051) can0 0A8#2200ABE9FBFF2000
(1572903672.592297) can0 0A7#1E000000FAFFFCFF
(1572903672.592540) can0 0A6#F1FFEDFFF7FF0000
(1572903672.592777) can0 0A5#230900000000DFA8
(1572903672.593027) can0 0A4#0000000000000000
(1572903672.593251) can0 0A3#EEB9D71EEEB9F71E
(1572903672.593501) can0 0C0#0000000000000000
(1572903672.599828) can0 0AD#FFFF000000000000
(1572903672.600076) can0 0AC#00000D007C000000
(1572903672.600326) can0 0AB#0000000000000000
(1572903672.600570) can0 0AA#0400090000000000
(1572903672.600811) can0 0A8#2200ABE900001700
(1572903672.601056) can0 0A7#16000000FDFF0000
(1572903672.601296) can0 0A6#F2FFF6FFF2FF0000
(1572903672.601532) can0 0A5#230900000000D5AD
(1572903672.601782) can0 0A4#0000000000000000
(1572903672.602006) can0 0A3#EDBDD71EEEB9F71E
(1572903672.602781) can0 0C0#0000000000000000
(1572903672.608911) can0 0AD#0000000000000000
(1572903672.609160) can0 0AC#000009007F000000
(1572903672.609409) can0 0AB#0000000000000000
(1572903672.609653) can0 0AA#0400090000000000
(1572903672.609891) can0 0A8#2200ABE9FFFF1300
(1572903672.610135) can0 0A7#1A000000FDFFF9FF
(1572903672.610375) can0 0A6#F3FFF4FFEDFF0000
(1572903672.610611) can0 0A5#2309000000008BB2
(1572903672.610861) can0 0A4#0000000000000000
(1572903672.611085) can0 0A3#EDBDD71EEEB9F71E
(1572903672.612530) can0 0C0#0000000000000000
(1572903672.617822) can0 0AD#0000000000000000
(1572903672.618070) can0 0AC#00000D0082000000
(1572903672.618320) can0 0AB#0000000000000000
(1572903672.618564) can0 0AA#0400090000000000
(1572903672.618802) can0 0A8#2200ABE900001A00
(1572903672.619046) can0 0A7#1A000000FFFFF9FF
(1572903672.619284) can0 0A6#F0FFF5FFF6FF0000
(1572903672.619520) can0 0A5#230900000000F0B6
(1572903672.619770) can0 0A4#0000000000000000
(1572903672.619993) can0 0A3#EDBDD71EEEB9F71E
(1572903672.622582) can0 0C0#0000000000000000
(1572903672.626824) can0 0AD#FFFF000000000000
(1572903672.627062) can0 0AE#1000B41911051820
(1572903672.627306) can0 0AC#0000080085000000
(1572903672.627556) can0 0AB#0000000000000000
(1572903672.627800) can0 0AA#0400090000000000
(1572903672.628033) can0 0A9#9700FB00FF016E04
(1572903672.628274) can0 0A8#2200ABE9FFFF1000
(1572903672.628515) can0 0A7#19000000F6FFF7FF
(1572903672.628755) can0 0A6#F8FFF8FFF1FF0000
(1572903672.628991) can0 0A5#23090000000024BB
(1572903672.629241) can0 0A4#0000000000000000
(1572903672.629465) can0 0A3#EEBDD71EEEB9F71E
(1572903672.629697) can0 0A2#F0D8F0D865050000
(1572903672.629927) can0 0A1#B80049083908F0D8
(1572903672.630163) can0 0A0#CB00CD00CD00B500
(1572903672.632633) can0 0C0#0000000000000000
(1572903672.635821) can0 0AD#0000000000000000
(1572903672.636067) can0 0AC#00000C0088000000
(1572903672.636317) can0 0AB#0000000000000000
(1572903672.636561) can0 0AA#0400090000000000
(1572903672.636801) can0 0A8#2200ABE9FFFF0F00
(1572903672.637043) can0 0A7#18000000FAFFF9FF
(1572903672.637283) can0 0A6#F8FFF8FFF2FF0000
(1572903672.637522) can0 0A5#23090000000018BF
(1572903672.637773) can0 0A4#0000000000000000
(1572903672.637996) can0 0A3#EEBDD71EEEB9F71E
(1572903672.642682) can0 0C0#0000000000000000
(1572903672.644820) can0 0AD#FFFF000000000000
(1572903672.645064) can0 0AC#000007008B000000
(1572903672.645314) can0 0AB#0000000000000000
(1572903672.645558) can0 0AA#0400090000000000
(1572903672.645798) can0 0A8#2200ABE9FFFF0D00
(1572903672.646042) can0 0A7#16000000FFFFFCFF
(1572903672.646282) can0 0A6#F8FFF9FFF8FF0000
(1572903672.646524) can0 0A5#240900000000D7C2
(1572903672.646774) can0 0A4#0000000000000000
(1572903672.646997) can0 0A3#EDBDD71EEEB9F71E
(1572903672.647205) can0 0C1#010001000055
(1572903672.647815) can0 036#00
(1572903672.648476) can0 032#000027011F0100
(1572903672.650736) can0 0C2#0100010000550000
(1572903672.652782) can0 0C0#0000000000000000
(1572903672.653816) can0 0AD#0000000000000000
(1572903672.654060) can0 0AC#000006008E000000
(1572903672.654310) can0 0AB#0000000000000000
(1572903672.654554) can0 0AA#0400090000000000
(1572903672.654794) can0 0A8#2200ABE9FFFF0D00
(1572903672.655038) can0 0A7#19000000FFFFF7FF
(1572903672.655280) can0 0A6#F9FFFAFFFBFF0000
(1572903672.655518) can0 0A5#23090000000061C6
(1572903672.655768) can0 0A4#0000000000000000
(1572903672.655992) can0 0A3#EDBDD71EEEB9F71E
(1572903672.662822) can0 0AD#FFFF000000000000
(1572903672.663063) can0 0AC#0000090091000000
(1572903672.663313) can0 0AB#0000000000000000
(1572903672.663558) can0 0AA#0400090000000000
(1572903672.663799) can0 0A8#2200ABE9FFFF1200
(1572903672.664043) can0 0A7#160000000000F9FF
(1572903672.664283) can0 0A6#F6FFF8FFF3FF0000
(1572903672.664522) can0 0A5#230900000000BAC9
(1572903672.664771) can0 0A4#0000000000000000
(1572903672.664995) can0 0A3#EEBDD71EEEB9F71E
(1572903672.665244) can0 0C0#0000000000000000
(1572903672.671908) can0 0AD#FFFF000000000000
(1572903672.672154) can0 0AC#0000070094000000
(1572903672.672404) can0 0AB#0000000000000000
(1572903672.672648) can0 0AA#0400090000000000
(1572903672.672888) can0 0A8#2200ABE9FEFF0D00
(1572903672.673136) can0 0A7#16000000FFFFF7FF
(1572903672.673380) can0 0A6#FAFFF8FFF7FF0000
(1572903672.673622) can0 0A5#230900000000EFCC
(1572903672.673872) can0 0A4#0000000000000000
(1572903672.674099) can0 0A3#EEBDD71EEEB9071F
(1572903672.674349) can0 0C0#0000000000000000
(1572903672.680819) can0 0AD#FFFF000000000000
(1572903672.681061) can0 0AC#0000060097000000
(1572903672.681311) can0 0AB#0000000000000000
(1572903672.681555) can0 0AA#0400090000000000
(1572903672.681794) can0 0A8#2200ABE9FEFF0C00
(1572903672.682038) can0 0A7#18000000FDFFF9FF
(1572903672.682278) can0 0A6#F8FFF8FFF8FF0000
(1572903672.682518) can0 0A5#230900000000DACF
(1572903672.682768) can0 0A4#0000000000000000
(1572903672.682996) can0 0A3#EEBDD71EEEB9071F
(1572903672.683277) can0 0C0#0000000000000000
(1572903672.689817) can0 0AD#0000000000000000
(1572903672.690061) can0 0AC#000009009A000000
(1572903672.690311) can0 0AB#0000000000000000
(1572903672.690555) can0 0AA#0400090000000000
(1572903672.690790) can0 0A8#2200ABE9FAFF1100
(1572903672.691033) can0 0A7#15000000FAFFF9FF
(1572903672.691272) can0 0A6#F8FFFCFFF2FF0000
(1572903672.691508) can0 0A5#230900000000A9D2
(1572903672.691758) can0 0A4#0000000000000000
(1572903672.691982) can0 0A3#EDBDD71EEEB9F71E
(1572903672.692961) can0 0C0#0000000000000000
(1572903672.698817) can0 0AD#0100000000000000
(1572903672.699061) can0 0AC#000009009D000000
(1572903672.699311) can0 0AB#0000000000000000
(1572903672.699555) can0 0AA#0400090000000000
(1572903672.699793) can0 0A8#2200ABE900001100
(1572903672.700036) can0 0A7#1A0000000000F3FF
(1572903672.700276) can0 0A6#F6FFF9FFF8FF0000
(1572903672.700514) can0 0A5#23090000000052D5
(1572903672.700764) can0 0A4#0000000000000000
(1572903672.700988) can0 0A3#EDBDD71EEEB9F71E
(1572903672.703056) can0 0C0#0000000000000000
(1572903672.707820) can0 0AD#FFFF000000000000
(1572903672.708068) can0 0AC#00000800A0000000
(1572903672.708318) can0 0AB#0000000000000000
(1572903672.708562) can0 0AA#0400090000000000
(1572903672.708804) can0 0A8#2200ABE900001000
(1572903672.709053) can0 0A7#1B0000000000F9FF
(1572903672.709292) can0 0A6#F6FFFAFFF9FF0000
(1572903672.709527) can0 0A5#230900000000DBD7
(1572903672.709777) can0 0A4#0000000000000000
(1572903672.710001) can0 0A3#EEBDD71EEEB9F71E
(1572903672.713096) can0 0C0#0000000000000000
(1572903672.714070) can0 0C1#010001000055
(1572903672.714704) can0 036#00
(1572903672.715366) can0 032#00002401420100
(1572903672.716820) can0 0AD#FFFF000000000000
(1572903672.717062) can0 0AC#00000600A3000000
(1572903672.717312) can0 0AB#0000000000000000
(1572903672.717556) can0 0AA#0400090000000000
(1572903672.717796) can0 0A8#2200ABE9FFFF0D00
(1572903672.718040) can0 0A7#18000000F8FFF9FF
(1572903672.718280) can0 0A6#F9FFFAFFF9FF0000
(1572903672.718517) can0 0A5#2309000000003ADA
(1572903672.718767) can0 0A4#0000000000000000
(1572903672.718992) can0 0A3#EEBDD71EEEB9F71E
(1572903672.722737) can0 0C2#0100010000550000
(1572903672.723162) can0 0C0#0000000000000000
(1572903672.725820) can0 0AD#0100000000000000
(1572903672.726058) can0 0AE#1000B41911051820
(1572903672.726302) can0 0AC#00000700A6000000
(1572903672.726552) can0 0AB#0000000000000000
(1572903672.726795) can0 0AA#0400090000000000
(1572903672.727029) can0 0A9#9700FB00FF017004
(1572903672.727265) can0 0A8#2200ABE9FEFF0F00
(1572903672.727509) can0 0A7#1A0000000000F7FF
(1572903672.727751) can0 0A6#F9FFF7FFFDFF0000
(1572903672.727989) can0 0A5#2409000000007ADC
(1572903672.728239) can0 0A4#0000000000000000
(1572903672.728462) can0 0A3#EDBDD71EEEB9F71E
(1572903672.728694) can0 0A2#F0D8F0D865050000
(1572903672.728925) can0 0A1#B80049083908F0D8
(1572903672.729156) can0 0A0#CB00CE00CD00B700
(1572903672.733186) can0 0C0#0000000000000000
(1572903672.734906) can0 0AD#0000000000000000
(1572903672.735154) can0 0AC#00000200A9000000
(1572903672.735404) can0 0AB#0000000000000000
(1572903672.735648) can0 0AA#0400090000000000
(1572903672.735887) can0 0A8#2200ABE9F9FF0500
(1572903672.736129) can0 0A7#19000000FFFFF5FF
(1572903672.736373) can0 0A6#0200F8FFF7FF0000
(1572903672.736611) can0 0A5#2309000000009DDE
(1572903672.736861) can0 0A4#0000000000000000
(1572903672.737087) can0 0A3#EDBDD71EEEB9071F
(1572903672.743279) can0 0C0#0000000000000000
(1572903672.743821) can0 0AD#FFFF000000000000
(1572903672.744066) can0 0AC#00000500AC000000
(1572903672.744316) can0 0AB#0000000000000000
(1572903672.744561) can0 0AA#0400090000000000
(1572903672.744798) can0 0A8#2200ABE9F8FF0A00
(1572903672.745042) can0 0A7#160000000000F7FF
(1572903672.745282) can0 0A6#0000F5FFF5FF0000
(1572903672.745522) can0 0A5#2409000000009AE0
(1572903672.745772) can0 0A4#0000000000000000
(1572903672.745998) can0 0A3#EDB9D71EEEB9071F
(1572903672.752820) can0 0AD#FFFF000000000000
(1572903672.753064) can0 0AC#00000800AF000000
(1572903672.753314) can0 0AB#0000000000000000
(1572903672.753558) can0 0AA#0400090000000000
(1572903672.753798) can0 0A8#2200ABE9FFFF1000
(1572903672.754043) can0 0A7#1A000000FAFFF9FF
(1572903672.754290) can0 0A6#F8FFF8FFFBFF0000
(1572903672.754529) can0 0A5#24090000000080E2
(1572903672.754779) can0 0A4#0000000000000000
(1572903672.755005) can0 0A3#EDB9D71EEEB9071F
(1572903672.755254) can0 0C0#0000000000000000
(1572903672.761821) can0 0AD#FFFF000000000000
(1572903672.762068) can0 0AC#00000300B2000000
(1572903672.762318) can0 0AB#0000000000000000
(1572903672.762562) can0 0AA#0400090000000000
(1572903672.762804) can0 0A8#2200ABE900000700
(1572903672.763046) can0 0A7#1B000000FAFFF7FF
(1572903672.763292) can0 0A6#FBFFFEFFFBFF0000
(1572903672.763532) can0 0A5#2309000000004BE4
(1572903672.763782) can0 0A4#0000000000000000
(1572903672.764008) can0 0A3#EDBDD71EEEB9071F
(1572903672.764257) can0 0C0#0000000000000000
(1572903672.770819) can0 0AD#FFFF000000000000
(1572903672.771067) can0 0AC#00000100B5000000
(1572903672.771317) can0 0AB#0000000000000000
(1572903672.771561) can0 0AA#0400090000000000
(1572903672.771801) can0 0A8#2200ABE900000300
(1572903672.772049) can0 0A7#1A000000FFFFF7FF
(1572903672.772293) can0 0A6#FEFFFEFFFBFF0000
(1572903672.772530) can0 0A5#230900000000F9E5
(1572903672.772780) can0 0A4#0000000000000000
(1572903672.773004) can0 0A3#EDBDD71EEEB9F71E
(1572903672.773754) can0 0C0#0000000000000000
(1572903672.775660) can0 0C1#010001000055
(1572903672.776284) can0 036#00
(1572903672.776960) can0 032#00002A011F0100
(1572903672.779818) can0 0AD#0100000000000000
(1572903672.780064) can0 0AC#00000400B8000000
(1572903672.780314) can0 0AB#0000000000000000
(1572903672.780558) can0 0AA#0400090000000000
(1572903672.780796) can0 0A8#2200ABE902000900
(1572903672.781039) can0 0A7#15000000FFFFF5FF
(1572903672.781285) can0 0A6#F8FFFFFFFFFF0000
(1572903672.781523) can0 0A5#23090000000094E7
(1572903672.781773) can0 0A4#0000000000000000
(1572903672.781999) can0 0A3#EDBDD71EEEB9071F
(1572903672.782799) can0 0C2#0100010000550000
(1572903672.783788) can0 0C0#0000000000000000
(1572903672.788878) can0 0AD#0000000000000000
(1572903672.789124) can0 0AC#00000400BB000000
(1572903672.789374) can0 0AB#0000000000000000
(1572903672.789618) can0 0AA#0400090000000000
(1572903672.789859) can0 0A8#2200ABE900000800
(1572903672.790105) can0 0A7#180000000000FEFF
(1572903672.790347) can0 0A6#FBFFFCFFFCFF0000
(1572903672.790589) can0 0A5#24090000000018E9
(1572903672.790839) can0 0A4#0000000000000000
(1572903672.791065) can0 0A3#EDBDD71EEEB9071F
(1572903672.793546) can0 0C0#0000000000000000
(1572903672.797966) can0 0AD#0000000000000000
(1572903672.798214) can0 0AC#00000500BE000000
(1572903672.798464) can0 0AB#0000000000000000
(1572903672.798707) can0 0AA#0400090000000000
(1572903672.798945) can0 0A8#2200ABE9FEFF0A00
(1572903672.799193) can0 0A7#1A000000FFFFF7FF
(1572903672.799437) can0 0A6#FBFFFFFFFCFF0000
(1572903672.799675) can0 0A5#2309000000008CEA
(1572903672.799925) can0 0A4#0000000000000000
(1572903672.800151) can0 0A3#EDBDD71EEEB9071F
(1572903672.803602) can0 0C0#0000000000000000
(1572903672.806878) can0 0AD#FFFF000000000000
(1572903672.807126) can0 0AC#00000100C1000000
(1572903672.807377) can0 0AB#0000000000000000
(1572903672.807620) can0 0AA#0400090000000000
(1572903672.807863) can0 0A8#2200ABE900000200
(1572903672.808106) can0 0A7#18000000F8FFF9FF
(1572903672.808350) can0 0A6#FEFFFFFF00000000
(1572903672.808588) can0 0A5#240900000000E4EB
(1572903672.808838) can0 0A4#0000000000000000
(1572903672.809064) can0 0A3#EDBDD71EEEB9071F
(1572903672.813638) can0 0C0#0000000000000000
(1572903672.815874) can0 0AD#0000000000000000
(1572903672.816118) can0 0AC#00000600C4000000
(1572903672.816368) can0 0AB#0000000000000000
(1572903672.816612) can0 0AA#0400090000000000
(1572903672.816850) can0 0A8#2200ABE9FCFF0D00
(1572903672.817092) can0 0A7#19000000FFFFFCFF
(1572903672.817336) can0 0A6#FBFFF7FFFAFF0000
(1572903672.817572) can0 0A5#2309000000002AED
(1572903672.817821) can0 0A4#0000000000000000
(1572903672.818045) can0 0A3#EEBDD71EEEB9F71E
(1572903672.823686) can0 0C0#0000000000000000
(1572903672.824876) can0 0AD#FFFF000000000000
(1572903672.825114) can0 0AE#1000B41911051820
(1572903672.825360) can0 0AC#00000500C7000000
(1572903672.825610) can0 0AB#0000000000000000
(1572903672.825854) can0 0AA#0400090000000000
(1572903672.826090) can0 0A9#9700FB00FF017F04
(1572903672.826327) can0 0A8#2200ABE9FEFF0900
(1572903672.826571) can0 0A7#160000000000FEFF
(1572903672.826813) can0 0A6#FCFFFAFF00000000
(1572903672.827053) can0 0A5#2409000000005FEE
(1572903672.827303) can0 0A4#0000000000000000
(1572903672.827531) can0 0A3#EEBDD71EEFB9F71E
(1572903672.827763) can0 0A2#F0D8F0D865050000
(1572903672.827991) can0 0A1#BA0049083908F0D8
(1572903672.828225) can0 0A0#CB00CD00CD00B700
(1572903672.833744) can0 0C0#0000000000000000
(1572903672.833994) can0 0AD#FFFF000000000000
(1572903672.834240) can0 0AC#00000300CA000000
(1572903672.834490) can0 0AB#0000000000000000
(1572903672.834734) can0 0AA#0400090000000000
(1572903672.834976) can0 0A8#2200ABE900000600
(1572903672.835221) can0 0A7#18000000FDFFFCFF
(1572903672.835466) can0 0A6#FCFFFDFF00000000
(1572903672.835707) can0 0A5#2409000000007EEF
(1572903672.835957) can0 0A4#0000000000000000
(1572903672.836185) can0 0A3#EEBDD71EEFB9F71E
(1572903672.842873) can0 0AD#FFFF000000000000
(1572903672.843119) can0 0AC#00000400CD000000
(1572903672.843369) can0 0AB#0000000000000000
(1572903672.843613) can0 0AA#0400090000000000
(1572903672.843855) can0 0A8#2200ABE900000900
(1572903672.844098) can0 0A7#18000000FDFFF9FF
(1572903672.844340) can0 0A6#FAFFFDFFFBFF0000
(1572903672.844584) can0 0A5#24090000000090F0
(1572903672.844834) can0 0A4#0000000000000000
(1572903672.845058) can0 0A3#EEB9D71EEEB9F71E
(1572903672.845265) can0 0C1#010001000055
(1572903672.845514) can0 0C0#0000000000000000
(1572903672.845853) can0 036#00
(1572903672.846511) can0 032#00003C011F0100
(1572903672.851869) can0 0AD#0000000000000000
(1572903672.852117) can0 0AC#00000100D0000000
(1572903672.852366) can0 0AB#0000000000000000
(1572903672.852610) can0 0AA#0400090000000000
(1572903672.852850) can0 0A8#2200ABE901000200
(1572903672.853094) can0 0A7#18000000FDFFF7FF
(1572903672.853338) can0 0A6#FDFF000000000000
(1572903672.853576) can0 0A5#24090000000094F1
(1572903672.853826) can0 0A4#0000000000000000
(1572903672.854050) can0 0A3#EEBDD71EEEB9F71E
(1572903672.854299) can0 0C0#0000000000000000
(1572903672.854789) can0 0C2#0100010000550000
(1572903672.860957) can0 0AD#FFFF000000000000
(1572903672.861203) can0 0AC#00000100D3000000
(1572903672.861453) can0 0AB#0000000000000000
(1572903672.861697) can0 0AA#0400090000000000
(1572903672.861939) can0 0A8#2200ABE9FEFF0200
(1572903672.862181) can0 0A7#19000000FFFFF5FF
(1572903672.862422) can0 0A6#FDFF0000FEFF0000
(1572903672.862662) can0 0A5#2409000000008DF2
(1572903672.862912) can0 0A4#0000000000000000
(1572903672.863140) can0 0A3#EEBDD71EEEB9071F
(1572903672.863922) can0 0C0#0000000000000000
(1572903672.869868) can0 0AD#FFFF000000000000
(1572903672.870116) can0 0AC#00000400D6000000
(1572903672.870366) can0 0AB#0000000000000000
(1572903672.870610) can0 0AA#0400090000000000
(1572903672.870848) can0 0A8#2200ABE9FEFF0800
(1572903672.871092) can0 0A7#16000000FFFFF9FF
(1572903672.871336) can0 0A6#FDFFFBFFFEFF0000
(1572903672.871576) can0 0A5#24090000000074F3
(1572903672.871826) can0 0A4#0000000000000000
(1572903672.872052) can0 0A3#EDBDD71EEEB9071F
(1572903672.873970) can0 0C0#0000000000000000
(1572903672.878866) can0 0AD#0100000000000000
(1572903672.879112) can0 0AC#00000000D9000000
(1572903672.879362) can0 0AB#0000000000000000
(1572903672.879606) can0 0AA#0400090000000000
(1572903672.879850) can0 0A8#2200ABE9FDFFFFFF
(1572903672.880096) can0 0A7#1C000000FFFFF7FF
(1572903672.880339) can0 0A6#0200FEFFFBFF0000
(1572903672.880580) can0 0A5#24090000000051F4
(1572903672.880829) can0 0A4#0000000000000000
(1572903672.881055) can0 0A3#EDBDD71EEEB9071F
(1572903672.884053) can0 0C0#0000000000000000
(1572903672.887866) can0 0AD#FFFF000000000000
(1572903672.888112) can0 0AC#0000FDFFDC000000
(1572903672.888362) can0 0AB#0000000000000000
(1572903672.888606) can0 0AA#0400090000000000
(1572903672.888844) can0 0A8#2200ABE90300FAFF
(1572903672.889086) can0 0A7#19000000FFFFFEFF
(1572903672.889329) can0 0A6#0000060006000000
(1572903672.889573) can0 0A5#24090000000020F5
(1572903672.889823) can0 0A4#0000000000000000
(1572903672.890049) can0 0A3#EDBDD71EEEB9071F
(1572903672.894079) can0 0C0#0000000000000000
(1572903672.896863) can0 0AD#FFFF000000000000
(1572903672.897113) can0 0AC#00000200DF000000
(1572903672.897363) can0 0AB#0000000000000000
(1572903672.897607) can0 0AA#0400090000000000
(1572903672.897849) can0 0A8#2200ABE900000400
(1572903672.898091) can0 0A7#18000000FAFFF9FF
(1572903672.898336) can0 0A6#FEFFFEFF01000000
(1572903672.898572) can0 0A5#240900000000E4F5
(1572903672.898822) can0 0A4#0000000000000000
(1572903672.899048) can0 0A3#EDBDD71EEEB9071F
(1572903672.904117) can0 0C0#0000000000000000
(1572903672.905722) can0 0C1#010001000055
(1572903672.905972) can0 0AD#FFFF000000000000
(1572903672.906218) can0 0AC#00000200E2000000
(1572903672.906468) can0 0AB#0000000000000000
(1572903672.906712) can0 0AA#0400090000000000
(1572903672.906829) can0 036#00
(1572903672.907071) can0 0A8#2200ABE900000400
(1572903672.907315) can0 0A7#1B000000F8FF0000
(1572903672.907536) can0 032#00002D011C0100
(1572903672.907782) can0 0A6#FEFFFEFFFEFF0000
(1572903672.908022) can0 0A5#2409000000009BF6
(1572903672.908272) can0 0A4#0000000000000000
(1572903672.908498) can0 0A3#EDBDD71EEEB9071F
(1572903672.914191) can0 0C0#0000000000000000
(1572903672.914861) can0 0AD#FFFF000000000000
(1572903672.915105) can0 0C2#0100010000550000
(1572903672.915351) can0 0AC#00000200E5000000
(1572903672.915601) can0 0AB#0000000000000000
(1572903672.915845) can0 0AA#0400090000000000
(1572903672.916082) can0 0A8#2200ABE9FDFF0300
(1572903672.916328) can0 0A7#1A0000000000F9FF
(1572903672.916574) can0 0A6#0000FBFFF9FF0000
(1572903672.916816) can0 0A5#2409000000004AF7
(1572903672.917066) can0 0A4#0000000000000000
(1572903672.917294) can0 0A3#EEBDD71EEEB9071F
(1572903672.923948) can0 0AD#FFFF000000000000
(1572903672.924186) can0 0AE#1000B41911051820
(1572903672.924434) can0 0AC#00000000E8000000
(1572903672.924684) can0 0AB#0000000000000000
(1572903672.924928) can0 0AA#0400090000000000
(1572903672.925164) can0 0A9#9700FB00FF017404
(1572903672.925405) can0 0A8#2200ABE9FFFF0100
(1572903672.925651) can0 0A7#18000000FDFFFCFF
(1572903672.925895) can0 0A6#0000FEFFFFFF0000
(1572903672.926135) can0 0A5#240900000000F5F7
(1572903672.926385) can0 0A4#0000000000000000
(1572903672.926613) can0 0A3#EEBDD71EEEB9071F
(1572903672.926845) can0 0A2#F0D8F0D865050000
(1572903672.927075) can0 0A1#B80049083908F0D8
(1572903672.927307) can0 0A0#CA00CD00CD00BB00
(1572903672.927556) can0 0C0#0000000000000000
(1572903672.932856) can0 0AD#0000000000000000
(1572903672.933106) can0 0AC#00000000EB000000
(1572903672.933355) can0 0AB#0000000000000000
(1572903672.933599) can0 0AA#0400090000000000
(1572903672.933840) can0 0A8#2200ABE9FEFF0100
(1572903672.934086) can0 0A7#14000000FDFF0000
(1572903672.934327) can0 0A6#0000FEFFFCFF0000
(1572903672.934569) can0 0A5#24090000000090F8
(1572903672.934819) can0 0A4#0000000000000000
(1572903672.935047) can0 0A3#EEBDD71EEEB9071F
(1572903672.935296) can0 0C0#0000000000000000
(1572903672.941856) can0 0AD#0000000000000000
(1572903672.942104) can0 0AC#00000000EE000000
(1572903672.942354) can0 0AB#0000000000000000
(1572903672.942598) can0 0AA#0400090000000000
(1572903672.942840) can0 0A8#2200ABE900000700
(1572903672.943082) can0 0A7#19000000FFFFF9FF
(1572903672.943324) can0 0A6#FBFFFEFFFCFF0000
(1572903672.943564) can0 0A5#24090000000022F9
(1572903672.943814) can0 0A4#0000000000000000
(1572903672.944038) can0 0A3#EEBDD71EEEB9F71E
(1572903672.944311) can0 0C0#0000000000000000
(1572903672.950855) can0 0AD#0200000000000000
(1572903672.951100) can0 0AC#00000300F1000000
(1572903672.951351) can0 0AB#0000000000000000
(1572903672.951594) can0 0AA#0400090000000000
(1572903672.951836) can0 0A8#2200ABE900000600
(1572903672.952078) can0 0A7#190000000200F7FF
(1572903672.952320) can0 0A6#FBFFFEFFFCFF0000
(1572903672.952558) can0 0A5#250900000000ACF9
(1572903672.952808) can0 0A4#0000000000000000
(1572903672.953032) can0 0A3#EEBDD71EEEB9F71E
(1572903672.954392) can0 0C0#0000000000000000
(1572903672.959854) can0 0AD#0100000000000000
(1572903672.960100) can0 0AC#00000300F4000000
(1572903672.960350) can0 0AB#0000000000000000
(1572903672.960593) can0 0AA#0400090000000000
(1572903672.960833) can0 0A8#2200ABE90000F8FF
(1572903672.961079) can0 0A7#18000000FFFFF7FF
(1572903672.961321) can0 0A6#0200030005000000
(1572903672.961559) can0 0A5#25090000000034FA
(1572903672.961809) can0 0A4#0000000000000000
(1572903672.962037) can0 0A3#EEBDD71EEEB9071F
(1572903672.964444) can0 0C0#0000000000000000
(1572903672.968851) can0 0AD#0100000000000000
(1572903672.969097) can0 0AC#00000100F7000000
(1572903672.969347) can0 0AB#0000000000000000
(1572903672.969591) can0 0AA#0400090000000000
(1572903672.969829) can0 0A8#2200ABE9FEFF0600
(1572903672.970071) can0 0A7#1A000000FDFFF0FF
(1572903672.970317) can0 0A6#FEFFFBFF05000000
(1572903672.970555) can0 0A5#250900000000B0FA
(1572903672.970805) can0 0A4#0000000000000000
(1572903672.971033) can0 0A3#EEBDD71EEEB9071F
(1572903672.974179) can0 0C1#010001000055
(1572903672.974572) can0 0C0#0000000000000000
(1572903672.974816) can0 0C2#0100010000550000
(1572903672.975521) can0 036#00
(1572903672.976181) can0 032#00002D011C0100
(1572903672.977851) can0 0AD#FFFF000000000000
(1572903672.978101) can0 0AC#00000000FA000000
(1572903672.978351) can0 0AB#0000000000000000
(1572903672.978595) can0 0AA#0400090000000000
(1572903672.978835) can0 0A8#2200ABE901000000
(1572903672.979079) can0 0A7#1B000000FFFFF7FF
(1572903672.979323) can0 0A6#FEFF000002000000
(1572903672.979561) can0 0A5#25090000000027FB
(1572903672.979811) can0 0A4#0000000000000000
(1572903672.980035) can0 0A3#EEBDD71EEEB9F71E
(1572903672.984569) can0 0C0#0000000000000000
(1572903672.986937) can0 0AD#0000000000000000
(1572903672.987185) can0 0AC#00000300FD000000
(1572903672.987435) can0 0AB#0000000000000000
(1572903672.987679) can0 0AA#0400090000000000
(1572903672.987921) can0 0A8#2200ABE900000600
(1572903672.988167) can0 0A7#1A000000FFFF0300
(1572903672.988415) can0 0A6#FBFFFBFF00000000
(1572903672.988652) can0 0A5#25090000000095FB
(1572903672.988902) can0 0A4#0000000000000000
(1572903672.989130) can0 0A3#EEBDD71EEEB9071F
(1572903672.994610) can0 0C0#0000000000000000
(1572903672.995846) can0 0AD#0000000000000000
(1572903672.996096) can0 0AC#0000030000010000
(1572903672.996346) can0 0AB#0000000000000000
(1572903672.996590) can0 0AA#0400090000000000
(1572903672.996828) can0 0A8#2200ABE9FEFF0600
(1572903672.997071) can0 0A7#190000000000FCFF
(1572903672.997317) can0 0A6#FEFFFBFF05000000
(1572903672.997559) can0 0A5#250900000000FCFB
(1572903672.997809) can0 0A4#0000000000000000
(1572903672.998037) can0 0A3#EEBDD71EEEB9071F
(1572903673.004709) can0 0C0#0000000000000000
(1572903673.004959) can0 0AD#FFFF000000000000
(1572903673.005207) can0 0AC#0000000003010000
(1572903673.005456) can0 0AB#0000000000000000
(1572903673.005700) can0 0AA#0400090000000000
(1572903673.005943) can0 0A8#2200ABE9FBFF0000
(1572903673.006188) can0 0A7#18000000FAFFFEFF
(1572903673.006430) can0 0A6#0300FBFFFDFF0000
(1572903673.006672) can0 0A5#25090000000060FC
(1572903673.006922) can0 0A4#0000000000000000
(1572903673.007150) can0 0A3#EEBDD71EEEB9071F
(1572903673.013844) can0 0AD#0100000000000000
(1572903673.014090) can0 0AC#0000010006010000
(1572903673.014340) can0 0AB#0000000000000000
(1572903673.014583) can0 0AA#0400090000000000
(1572903673.014823) can0 0A8#2200ABE902000300
(1572903673.015067) can0 0A7#1A000000FFFFF9FF
(1572903673.015313) can0 0A6#FBFF0000FAFF0000
(1572903673.015551) can0 0A5#250900000000BDFC
(1572903673.015801) can0 0A4#0000000000000000
(1572903673.016027) can0 0A3#EDBDD71EEEB9071F
(1572903673.016276) can0 0C0#0000000000000000
(1572903673.022844) can0 0AD#0100000000000000
(1572903673.023082) can0 0AE#1000B41911051820
(1572903673.023328) can0 0AC#0000000009010000
(1572903673.023578) can0 0AB#0000000000000000
(1572903673.023822) can0 0AA#0400090000000000
(1572903673.024058) can0 0A9#9700FB00FF017904
(1572903673.024298) can0 0A8#2200ABE9FEFF0000
(1572903673.024544) can0 0A7#1A000000FFFFFEFF
(1572903673.024788) can0 0A6#0000FEFF05000000
(1572903673.025029) can0 0A5#25090000000014FD
(1572903673.025279) can0 0A4#0000000000000000
(1572903673.025507) can0 0A3#EEBDD71EEEBD071F
(1572903673.025739) can0 0A2#F0D8F0D865050000
(1572903673.025967) can0 0A1#B70049083908F0D8
(1572903673.026207) can0 0A0#CA00CD00CC00B700
(1572903673.026456) can0 0C0#0000000000000000
(1572903673.031844) can0 0AD#FFFF000000000000
(1572903673.032090) can0 0AC#000000000C010000
(1572903673.032340) can0 0AB#0000000000000000
(1572903673.032584) can0 0AA#0400090000000000
(1572903673.032824) can0 0A8#2200ABE9FEFF0000
(1572903673.033068) can0 0A7#15000000FFFFF7FF
(1572903673.033314) can0 0A6#0100FEFFFDFF0000
(1572903673.033551) can0 0A5#25090000000068FD
(1572903673.033801) can0 0A4#0000000000000000
(1572903673.034029) can0 0A3#EEBDD71EEEB9071F
(1572903673.034849) can0 0C0#0000000000000000
(1572903673.035636) can0 036#00
(1572903673.036294) can0 032#000024011C0100
(1572903673.040838) can0 0AD#0000000000000000
(1572903673.041084) can0 0AC#000000000F010000
(1572903673.041334) can0 0AB#0000000000000000
(1572903673.041578) can0 0AA#0400090000000000
(1572903673.041818) can0 0A8#2200ABE9FEFF0000
(1572903673.042066) can0 0A7#16000000FFFFF7FF
(1572903673.042310) can0 0A6#0100FEFF00000000
(1572903673.042548) can0 0A5#250900000000B8FD
(1572903673.042797) can0 0A4#0000000000000000
(1572903673.043025) can0 0A3#EEBDD71EEEB9071F
(1572903673.044908) can0 0C0#0000000000000000
(1572903673.049926) can0 0AD#0100000000000000
(1572903673.050172) can0 0AC#0000030012010000
(1572903673.050422) can0 0AB#0000000000000000
(1572903673.050666) can0 0AA#0400090000000000
(1572903673.050906) can0 0A8#2200ABE900000500
(1572903673.051150) can0 0A7#16000000FFFFFEFF
(1572903673.051396) can0 0A6#FFFFF8FF00000000
(1572903673.051639) can0 0A5#24090000000003FE
(1572903673.051889) can0 0A4#0000000000000000
(1572903673.052119) can0 0A3#EEBDD71EEFB9071F
(1572903673.054970) can0 0C0#0000000000000000
(1572903673.058837) can0 0AD#0100000000000000
(1572903673.059080) can0 0AC#0000FEFF15010000
(1572903673.059330) can0 0AB#0000000000000000
(1572903673.059574) can0 0AA#0400090000000000
(1572903673.059816) can0 0A8#2200ABE90500FBFF
(1572903673.060060) can0 0A7#1C000000FDFFF9FF
(1572903673.060302) can0 0A6#FFFF0600FDFF0000
(1572903673.060545) can0 0A5#2409000000004BFE
(1572903673.060794) can0 0A4#0000000000000000
(1572903673.061021) can0 0A3#EEBDD71EEFB9F71E
(1572903673.065065) can0 0C0#0000000000000000
(1572903673.067833) can0 0AD#0000000000000000
(1572903673.068079) can0 0AC#0000040018010000
(1572903673.068329) can0 0AB#0000000000000000
(1572903673.068573) can0 0AA#0400090000000000
(1572903673.068813) can0 0A8#2200ABE9FFFF0800
(1572903673.069057) can0 0A7#1A000000FDFFF7FF
(1572903673.069299) can0 0A6#FCFFFBFFFAFF0000
(1572903673.069539) can0 0A5#2409000000008EFE
(1572903673.069789) can0 0A4#0000000000000000
(1572903673.070017) can0 0A3#EEBDD71EEEB9071F
(1572903673.075103) can0 0C0#0000000000000000
(1572903673.076835) can0 0AD#FFFF000000000000
(1572903673.077077) can0 0AC#0000FEFF1B010000
(1572903673.077327) can0 0AB#0000000000000000
(1572903673.077571) can0 0AA#0400090000000000
(1572903673.077813) can0 0A8#2200ABE90100FBFF
(1572903673.078057) can0 0A7#18000000FDFFF9FF
(1572903673.078299) can0 0A6#01000300FEFF0000
(1572903673.078541) can0 0A5#240900000000D1FE
(1572903673.078791) can0 0A4#0000000000000000
(1572903673.079019) can0 0A3#EEBDD71EEEB9071F
(1572903673.085154) can0 0C0#0000000000000000
(1572903673.085830) can0 0AD#0000000000000000
(1572903673.086075) can0 0AC#000005001E010000
(1572903673.086324) can0 0AB#0000000000000000
(1572903673.086568) can0 0AA#0400090000000000
(1572903673.086808) can0 0A8#2200ABE900000A00
(1572903673.087054) can0 0A7#1A0000000000F9FF
(1572903673.087298) can0 0A6#F9FFFBFF00000000
(1572903673.087540) can0 0A5#23090000000012FF
(1572903673.087790) can0 0A4#0000000000000000
(1572903673.088018) can0 0A3#EEBDD71EEEBD071F
(1572903673.094832) can0 0AD#0100000000000000
(1572903673.095075) can0 0AC#0000050021010000
(1572903673.095325) can0 0AB#0000000000000000
(1572903673.095569) can0 0AA#0400090000000000
(1572903673.095809) can0 0A8#2200ABE900000A00
(1572903673.096055) can0 0A7#1A0000000400F9FF
(1572903673.096297) can0 0A6#F9FFFBFFFEFF0000
(1572903673.096541) can0 0A5#2409000000004DFF
(1572903673.096790) can0 0A4#0000000000000000
(1572903673.097019) can0 0A3#EEBDD71EEEBD071F
(1572903673.097268) can0 0C0#0000000000000000
(1572903673.103834) can0 0AD#FFFF000000000000
(1572903673.104080) can0 0AC#0000000024010000
(1572903673.104197) can0 036#00
(1572903673.104448) can0 0AB#0000000000000000
(1572903673.104691) can0 0AA#0400090000000000
(1572903673.104915) can0 032#00002D011F0100
(1572903673.105154) can0 0A8#2200ABE900000500
(1572903673.105396) can0 0A7#19000000FDFFF9FF
(1572903673.105642) can0 0A6#FCFFFEFF02000000
(1572903673.105888) can0 0A5#24090000000081FF
(1572903673.106138) can0 0A4#0000000000000000
(1572903673.106366) can0 0A3#EEBDD71EEEBD071F
(1572903673.106615) can0 0C0#0000000000000000
(1572903673.112917) can0 0AD#FFFF000000000000
(1572903673.113165) can0 0AC#0000010027010000
(1572903673.113415) can0 0AB#0000000000000000
(1572903673.113659) can0 0AA#0400090000000000
(1572903673.113903) can0 0A8#2200ABE902000200
(1572903673.114148) can0 0A7#19000000FFFFF7FF
(1572903673.114393) can0 0A6#FFFFFFFF02000000
(1572903673.114637) can0 0A5#240900000000B4FF
(1572903673.114886) can0 0A4#0000000000000000
(1572903673.115114) can0 0A3#EEBDD71EEEB9071F
(1572903673.115365) can0 0C0#0000000000000000
(1572903673.121828) can0 0AD#0000000000000000
(1572903673.122065) can0 0AE#1000B41911051820
(1572903673.122311) can0 0AC#000000002A010000
(1572903673.122561) can0 0AB#0000000000000000
(1572903673.122805) can0 0AA#0400090000000000
(1572903673.123041) can0 0A9#9700FB00FF017E04
(1572903673.123281) can0 0A8#2200ABE901000000
(1572903673.123525) can0 0A7#1B000000FDFFF5FF
(1572903673.123769) can0 0A6#FFFF010002000000
(1572903673.124013) can0 0A5#240900000000E3FF
(1572903673.124263) can0 0A4#0000000000000000
(1572903673.124490) can0 0A3#EEBDD71EEEB9071F
(1572903673.124722) can0 0A2#F0D8F0D865050000
(1572903673.124950) can0 0A1#BA0049083908F0D8
(1572903673.125184) can0 0A0#CA00CD00CC00B600
(1572903673.125709) can0 0C0#0000000000000000
(1572903673.130829) can0 0AD#FFFF000000000000
(1572903673.131073) can0 0AC#000004002D010000
(1572903673.131323) can0 0AB#0000000000000000
(1572903673.131567) can0 0AA#0400090000000000
(1572903673.131808) can0 0A8#2200ABE905000800
(1572903673.132052) can0 0A7#1A0000000000F7FF
(1572903673.132292) can0 0A6#F6FF0100FEFF0000
(1572903673.132536) can0 0A5#2409000000000F00
(1572903673.132786) can0 0A4#0000000000000000
(1572903673.133014) can0 0A3#EEBDD71EEEB9071F
(1572903673.135435) can0 0C0#0000000000000000
(1572903673.139822) can0 0AD#0000000000000000
(1572903673.140070) can0 0AC#0000020030010000
(1572903673.140320) can0 0AB#0000000000000000
(1572903673.140564) can0 0AA#0400090000000000
(1572903673.140806) can0 0A8#2200ABE9FEFF0400
(1572903673.141052) can0 0A7#18000000FDFFFCFF
(1572903673.141296) can0 0A6#FFFFFCFF00000000
(1572903673.141534) can0 0A5#2309000000003900
(1572903673.141784) can0 0A4#0000000000000000
(1572903673.142011) can0 0A3#EEBDD71EEEB9071F
(1572903673.145533) can0 0C0#0000000000000000
(1572903673.148823) can0 0AD#FFFF000000000000
(1572903673.149071) can0 0AC#0000000033010000
(1572903673.149320) can0 0AB#0000000000000000
(1572903673.149565) can0 0AA#0400090000000000
(1572903673.149804) can0 0A8#2200ABE901000000
(1572903673.150048) can0 0A7#1A0000000000F3FF
(1572903673.150292) can0 0A6#FFFF0100FEFF0000
(1572903673.150536) can0 0A5#2409000000006400
(1572903673.150786) can0 0A4#0000000000000000
(1572903673.151014) can0 0A3#EEBDD71EEEB9071F
(1572903673.155574) can0 0C0#0000000000000000
(1572903673.157822) can0 0AD#0000000000000000
(1572903673.158072) can0 0AC#0000010036010000
(1572903673.158322) can0 0AB#0000000000000000
(1572903673.158566) can0 0AA#0400090000000000
(1572903673.158808) can0 0A8#2200ABE9FEFF0400
(1572903673.159056) can0 0A7#18000000FFFFF9FF
(1572903673.159300) can0 0A6#FFFFFCFFFEFF0000
(1572903673.159542) can0 0A5#2409000000008B00
(1572903673.159791) can0 0A4#0000000000000000
(1572903673.160019) can0 0A3#EEBDD71EEEB9071F
(1572903673.165620) can0 0C0#0000000000000000
(1572903673.165776) can0 036#00
(1572903673.166438) can0 032#00002D01190100
(1572903673.166820) can0 0AD#0100000000000000
(1572903673.167066) can0 0AC#0000000039010000
(1572903673.167316) can0 0AB#0000000000000000
(1572903673.167560) can0 0AA#0400090000000000
(1572903673.167803) can0 0A8#2200ABE905000000
(1572903673.168045) can0 0A7#19000000FDFFF7FF
(1572903673.168289) can0 0A6#FCFF040005000000
(1572903673.168531) can0 0A5#230900000000AE00
(1572903673.168781) can0 0A4#0000000000000000
(1572903673.169007) can0 0A3#EDBDD71EEEB9071F
(1572903673.175687) can0 0C0#0000000000000000
(1572903673.175935) can0 0AD#0100000000000000
(1572903673.176181) can0 0AC#000002003C010000
(1572903673.176430) can0 0AB#0000000000000000
(1572903673.176674) can0 0AA#0400090000000000
(1572903673.176917) can0 0A8#2200ABE900000400
(1572903673.177160) can0 0A7#16000000FDFFF7FF
(1572903673.177404) can0 0A6#FCFFFFFF00000000
(1572903673.177644) can0 0A5#230900000000D200
(1572903673.177894) can0 0A4#0000000000000000
(1572903673.178120) can0 0A3#EDBDD71EEEBD071F
(1572903673.184820) can0 0AD#0000000000000000
(1572903673.185068) can0 0AC#000000003F010000
(1572903673.185317) can0 0AB#0000000000000000
(1572903673.185562) can0 0AA#0400090000000000
(1572903673.185800) can0 0A8#2200ABE9FEFF0A00
(1572903673.186039) can0 0A7#19000000F6FFFCFF
(1572903673.186281) can0 0A6#FCFFF9FF00000000
(1572903673.186519) can0 0A5#230900000000ED00
(1572903673.186769) can0 0A4#0000000000000000
(1572903673.186997) can0 0A3#EEBDD71EEEBD071F
(1572903673.187246) can0 0C0#0000000000000000
(1572903673.193824) can0 0AD#FFFF000000000000
(1572903673.194066) can0 0AC#0000FEFF42010000
(1572903673.194316) can0 0AB#0000000000000000
(1572903673.194560) can0 0AA#0400090000000000
(1572903673.194800) can0 0A8#2200ABE90000FCFF
(1572903673.195043) can0 0A7#190000000000FCFF
(1572903673.195284) can0 0A6#FCFFFCFFFDFF0000
(1572903673.195523) can0 0A5#2309000000000D01
(1572903673.195773) can0 0A4#0000000000000000
(1572903673.195999) can0 0A3#EEB9D71EEEB9071F
(1572903673.196248) can0 0C0#0000000000000000
(1572903673.202822) can0 0AD#FFFF000000000000
(1572903673.203068) can0 0AC#0000000045010000
(1572903673.203318) can0 0AB#0000000000000000
(1572903673.203562) can0 0AA#0400090000000000
(1572903673.203802) can0 0A8#2200ABE902000100
(1572903673.204048) can0 0A7#18000000FFFF0000
(1572903673.204292) can0 0A6#0100FCFF02000000
(1572903673.204530) can0 0A5#2309000000002A01
(1572903673.204780) can0 0A4#0000000000000000
(1572903673.205007) can0 0A3#EEBDD71EEEB9071F
(1572903673.205859) can0 0C0#0000000000000000
(1572903673.211823) can0 0AD#FFFF000000000000
(1572903673.212071) can0 0AC#0000000048010000
(1572903673.212321) can0 0AB#0000000000000000
(1572903673.212564) can0 0AA#0400090000000000
(1572903673.212806) can0 0A8#2200ABE9FCFF0000
(1572903673.213048) can0 0A7#16000000F8FFFCFF
(1572903673.213294) can0 0A6#0100FCFF00000000
(1572903673.213532) can0 0A5#2309000000004601
(1572903673.213782) can0 0A4#0000000000000000
(1572903673.214006) can0 0A3#EEBDD71EEEB9F71E
(1572903673.215906) can0 0C0#0000000000000000
(1572903673.220824) can0 0AD#FFFF000000000000
(1572903673.221062) can0 0AE#1000B41911051820
(1572903673.221308) can0 0AC#000000004B010000
(1572903673.221558) can0 0AB#0000000000000000
(1572903673.221802) can0 0AA#0400090000000000
(1572903673.222038) can0 0A9#9700FB00FF017A04
(1572903673.222277) can0 0A8#2200ABE90100FFFF
(1572903673.222520) can0 0A7#15000000FAFFF9FF
(1572903673.222765) can0 0A6#00000100FDFF0000
(1572903673.223003) can0 0A5#2309000000005D01
(1572903673.223255) can0 0A4#0000000000000000
(1572903673.223477) can0 0A3#EEBDD71EEEB9F71E
(1572903673.223709) can0 0A2#F0D8F0D865050000
(1572903673.223939) can0 0A1#B80049083908F0D8
(1572903673.224178) can0 0A0#CA00CD00CC00B700
(1572903673.225965) can0 0C0#0000000000000000
(1572903673.229823) can0 0AD#FFFF000000000000
(1572903673.230069) can0 0AC#000000004E010000
(1572903673.230319) can0 0AB#0000000000000000
(1572903673.230563) can0 0AA#0400090000000000
(1572903673.230803) can0 0A8#2200ABE90100FFFF
(1572903673.231045) can0 0A7#19000000FAFF0600
(1572903673.231287) can0 0A6#FFFF0100FDFF0000
(1572903673.231527) can0 0A5#2309000000007501
(1572903673.231777) can0 0A4#0000000000000000
(1572903673.232001) can0 0A3#EEBDD71EEEBDF71E
(1572903673.234242) can0 036#00
(1572903673.234902) can0 032#00002D011C0100
(1572903673.236026) can0 0C0#0000000000000000
(1572903673.238138) can0 067#200000004D95990C
(1572903673.238910) can0 0AD#0100000000000000
(1572903673.239157) can0 0AC#0000000051010000
(1572903673.239407) can0 0AB#0000000000000000
(1572903673.239650) can0 0AA#0400090000000000
(1572903673.239890) can0 0A8#2200ABE90500FFFF
(1572903673.240134) can0 0A7#1A0000000000F7FF
(1572903673.240381) can0 0A6#FCFF050000000000
(1572903673.240620) can0 0A5#2309000000008901
(1572903673.240870) can0 0A4#0000000000000000
(1572903673.241098) can0 0A3#EEBDD71EEFB9F71E
(1572903673.246099) can0 0C0#0000000000000000
(1572903673.247821) can0 0AD#0000000000000000
(1572903673.248063) can0 0AC#0000FEFF54010000
(1572903673.248313) can0 0AB#0000000000000000
(1572903673.248557) can0 0AA#0400090000000000
(1572903673.248795) can0 0A8#2200ABE90300FCFF
(1572903673.249039) can0 0A7#18000000FDFFF7FF
(1572903673.249287) can0 0A6#0000050000000000
(1572903673.249525) can0 0A5#230900000000A101
(1572903673.249775) can0 0A4#0000000000000000
(1572903673.250005) can0 0A3#EEBDD71EEFB9071F
(1572903673.256138) can0 0C0#0000000000000000
(1572903673.256822) can0 0AD#FFFF000000000000
(1572903673.257068) can0 0AC#0000000057010000
(1572903673.257318) can0 0AB#0000000000000000
(1572903673.257562) can0 0AA#0400090000000000
(1572903673.257804) can0 0A8#2200ABE900000000
(1572903673.258048) can0 0A7#1B000000FFFFF7FF
(1572903673.258295) can0 0A6#0000000002000000
(1572903673.258533) can0 0A5#230900000000B401
(1572903673.258783) can0 0A4#0000000000000000
(1572903673.259011) can0 0A3#EEBDD71EEEB9071F
(1572903673.265823) can0 0AD#FFFF000000000000
(1572903673.266067) can0 0AC#0000FFFF5A010000
(1572903673.266317) can0 0AB#0000000000000000
(1572903673.266561) can0 0AA#0400090000000000
(1572903673.266802) can0 0A8#2200ABE9FEFFFEFF
(1572903673.267044) can0 0A7#19000000FAFFF9FF
(1572903673.267290) can0 0A6#0200000002000000
(1572903673.267530) can0 0A5#230900000000C701
(1572903673.267780) can0 0A4#0000000000000000
(1572903673.268004) can0 0A3#EEBDD71EEEB9F71E
(1572903673.268253) can0 0C0#0000000000000000
(1572903673.274825) can0 0AD#FFFF000000000000
(1572903673.275071) can0 0AC#000000005D010000
(1572903673.275321) can0 0AB#0000000000000000
(1572903673.275565) can0 0AA#0400090000000000
(1572903673.275807) can0 0A8#2200ABE900000000
(1572903673.276047) can0 0A7#19000000FDFFF5FF
(1572903673.276299) can0 0A6#00000000FBFF0000
(1572903673.276537) can0 0A5#230900000000DB01
(1572903673.276787) can0 0A4#0000000000000000
(1572903673.277014) can0 0A3#EEBDD71EEEBD071F
(1572903673.277264) can0 0C0#0000000000000000
(1572903673.283824) can0 0AD#FFFF000000000000
(1572903673.284074) can0 0AC#0000000060010000
(1572903673.284324) can0 0AB#0000000000000000
(1572903673.284567) can0 0AA#0400090000000000
(1572903673.284810) can0 0A8#2200ABE902000000
(1572903673.285055) can0 0A7#190000000000F7FF
(1572903673.285299) can0 0A6#FDFF020000000000
(1572903673.285537) can0 0A5#230900000000EA01
(1572903673.285787) can0 0A4#0000000000000000
(1572903673.286013) can0 0A3#EDBDD71EEEBD071F
(1572903673.286366) can0 0C0#0000000000000000
(1572903673.292884) can0 0AD#FFFF000000000000
(1572903673.293126) can0 0AC#0000FDFF63010000
(1572903673.293376) can0 0AB#0000000000000000
(1572903673.293619) can0 0AA#0400090000000000
(1572903673.293859) can0 0A8#2200ABE90200F8FF
(1572903673.294105) can0 0A7#16000000FAFFF9FF
(1572903673.294345) can0 0A6#02000500FAFF0000
(1572903673.294587) can0 0A5#230900000000F801
(1572903673.294837) can0 0A4#0000000000000000
(1572903673.295062) can0 0A3#EDBDD71EEEBD071F
(1572903673.295900) can0 036#00
(1572903673.296383) can0 0C0#0000000000000000
(1572903673.296919) can0 032#000027011C0100
(1572903673.301971) can0 0AD#0100000000000000
(1572903673.302216) can0 0AC#0000000066010000
(1572903673.302466) can0 0AB#0000000000000000
(1572903673.302710) can0 0AA#0400090000000000
(1572903673.302952) can0 0A8#2200ABE900000000
(1572903673.303196) can0 0A7#1A000000FFFFFCFF
(1572903673.303440) can0 0A6#02000000FDFF0000
(1572903673.303684) can0 0A5#2409000000000A02
(1572903673.303934) can0 0A4#0000000000000000
(1572903673.304160) can0 0A3#EDBDD71EEEBD071F
(1572903673.306472) can0 0C0#0000000000000000
(1572903673.310885) can0 0AD#FFFF000000000000
(1572903673.311128) can0 0AC#0000FCFF69010000
(1572903673.311378) can0 0AB#0000000000000000
(1572903673.311622) can0 0AA#0400090000000000
(1572903673.311862) can0 0A8#2200ABE90200F8FF
(1572903673.312104) can0 0A7#19000000FFFFFCFF
(1572903673.312346) can0 0A6#0200050008000000
(1572903673.312586) can0 0A5#2309000000001202
(1572903673.312836) can0 0A4#0000000000000000
(1572903673.313063) can0 0A3#EEBDD71EEEBD071F
(1572903673.316515) can0 0C0#0000000000000000
(1572903673.319881) can0 0AD#0000000000000000
(1572903673.320119) can0 0AE#1000B41911051820
(1572903673.320363) can0 0AC#0000FFFF6C010000
(1572903673.320613) can0 0AB#0000000000000000
(1572903673.320857) can0 0AA#0400090000000000
(1572903673.321093) can0 0A9#9700FB00FF017904
(1572903673.321333) can0 0A8#2200ABE9FFFFFEFF
(1572903673.321575) can0 0A7#1B000000FDFFFCFF
(1572903673.321821) can0 0A6#0200000000000000
(1572903673.322058) can0 0A5#2309000000002102
(1572903673.322309) can0 0A4#0000000000000000
(1572903673.322536) can0 0A3#EEBDD71EEEB9071F
(1572903673.322768) can0 0A2#F0D8F0D865050000
(1572903673.322996) can0 0A1#B70049083908F0D8
(1572903673.323232) can0 0A0#CA00CD00CD00B700
(1572903673.326592) can0 0C0#0000000000000000
(1572903673.328878) can0 0AD#0000000000000000
(1572903673.329124) can0 0AC#0000FFFF6F010000
(1572903673.329374) can0 0AB#0000000000000000
(1572903673.329618) can0 0AA#0400090000000000
(1572903673.329856) can0 0A8#2200ABE90100FEFF
(1572903673.330098) can0 0A7#16000000FDFFF9FF
(1572903673.330344) can0 0A6#00000200FBFF0000
(1572903673.330583) can0 0A5#2309000000002F02
(1572903673.330833) can0 0A4#0000000000000000
(1572903673.331061) can0 0A3#EEBDD71EEEB9071F
(1572903673.336635) can0 0C0#0000000000000000
(1572903673.337874) can0 0AD#0000000000000000
(1572903673.338124) can0 0AC#0000000072010000
(1572903673.338374) can0 0AB#0000000000000000
(1572903673.338618) can0 0AA#0400090000000000
(1572903673.338862) can0 0A8#2200ABE900000000
(1572903673.339106) can0 0A7#180000000000F7FF
(1572903673.339356) can0 0A6#0000000000000000
(1572903673.339594) can0 0A5#2309000000003B02
(1572903673.339844) can0 0A4#0000000000000000
(1572903673.340072) can0 0A3#EEBDD71EEEBD071F
(1572903673.346732) can0 0C0#0000000000000000
(1572903673.346982) can0 0AD#FFFF000000000000
(1572903673.347228) can0 0AC#0000FFFF75010000
(1572903673.347478) can0 0AB#0000000000000000
(1572903673.347722) can0 0AA#0400090000000000
(1572903673.347960) can0 0A8#2200ABE901000300
(1572903673.348204) can0 0A7#180000000000FCFF
(1572903673.348448) can0 0A6#FDFF000000000000
(1572903673.348688) can0 0A5#2409000000004302
(1572903673.348938) can0 0A4#0000000000000000
(1572903673.349165) can0 0A3#EEBDD71EEEBD071F
(1572903673.355875) can0 0AD#FFFF000000000000
(1572903673.356121) can0 0AC#0000040078010000
(1572903673.356372) can0 0AB#0000000000000000
(1572903673.356615) can0 0AA#0400090000000000
(1572903673.356859) can0 0A8#2200ABE9FBFF0800
(1572903673.357104) can0 0A7#1C000000FDFFF9FF
(1572903673.357347) can0 0A6#0000F8FF05000000
(1572903673.357586) can0 0A5#2309000000005102
(1572903673.357835) can0 0A4#0000000000000000
(1572903673.358063) can0 0A3#EEBDD71EEEB9071F
(1572903673.358312) can0 0C0#0000000000000000
(1572903673.364432) can0 036#00
(1572903673.364963) can0 0AD#FFFF000000000000
(1572903673.365183) can0 032#00002D01160100
(1572903673.365429) can0 0AC#0000FFFF7B010000
(1572903673.365679) can0 0AB#0000000000000000
(1572903673.365923) can0 0AA#0400090000000000
(1572903673.366163) can0 0A8#2200ABE9FFFFFEFF
(1572903673.366410) can0 0A7#190000000000F9FF
(1572903673.366656) can0 0A6#0200020002000000
(1572903673.366900) can0 0A5#2409000000005C02
(1572903673.367150) can0 0A4#0000000000000000
(1572903673.367378) can0 0A3#EEBDD71EEEB9071F
(1572903673.367627) can0 0C0#0000000000000000
(1572903673.373869) can0 0AD#0100000000000000
(1572903673.374115) can0 0AC#000001007E010000
(1572903673.374365) can0 0AB#0000000000000000
(1572903673.374609) can0 0AA#0400090000000000
(1572903673.374851) can0 0A8#2200ABE9FEFF0200
(1572903673.375093) can0 0A7#19000000FDFFF7FF
(1572903673.375337) can0 0A6#0000FEFFFEFF0000
(1572903673.375574) can0 0A5#2309000000006602
(1572903673.375824) can0 0A4#0000000000000000
(1572903673.376052) can0 0A3#EEBDD71EEEB9071F
(1572903673.376913) can0 0C0#0000000000000000
(1572903673.382871) can0 0AD#FFFF000000000000
(1572903673.383119) can0 0AC#0000FFFF81010000
(1572903673.383369) can0 0AB#0000000000000000
(1572903673.383613) can0 0AA#0400090000000000
(1572903673.383854) can0 0A8#2200ABE90200FEFF
(1572903673.384099) can0 0A7#16000000FAFFF7FF
(1572903673.384347) can0 0A6#0000020002000000
(1572903673.384587) can0 0A5#2409000000007202
(1572903673.384837) can0 0A4#0000000000000000
(1572903673.385065) can0 0A3#EEBDD71EEEBD071F
(1572903673.386957) can0 0C0#0000000000000000
(1572903673.391869) can0 0AD#FFFF000000000000
(1572903673.392113) can0 0AC#0000FFFF84010000
(1572903673.392363) can0 0AB#0000000000000000
(1572903673.392607) can0 0AA#0400090000000000
(1572903673.392845) can0 0A8#2200ABE90500FEFF
(1572903673.393088) can0 0A7#180000000000F5FF
(1572903673.393334) can0 0A6#FDFF050000000000
(1572903673.393576) can0 0A5#2309000000007E02
(1572903673.393826) can0 0A4#0000000000000000
(1572903673.394054) can0 0A3#EEBDD71EEEBD071F
(1572903673.397009) can0 0C0#0000000000000000
(1572903673.400865) can0 0AD#0100000000000000
(1572903673.401109) can0 0AC#0000010087010000
(1572903673.401359) can0 0AB#0000000000000000
(1572903673.401602) can0 0AA#0400090000000000
(1572903673.401842) can0 0A8#2200ABE901000200
(1572903673.402084) can0 0A7#15000000FAFFF9FF
(1572903673.402326) can0 0A6#FDFF0000FEFF0000
(1572903673.402566) can0 0A5#2309000000008A02
(1572903673.402814) can0 0A4#0000000000000000
(1572903673.403044) can0 0A3#EEBDD71EEFB9071F
(1572903673.407063) can0 0C0#0000000000000000
(1572903673.409866) can0 0AD#0000000000000000
(1572903673.410111) can0 0AC#0000FDFF8A010000
(1572903673.410361) can0 0AB#0000000000000000
(1572903673.410605) can0 0AA#0400090000000000
(1572903673.410848) can0 0A8#2200ABE90000FBFF
(1572903673.411089) can0 0A7#16000000FDFFF9FF
(1572903673.411335) can0 0A6#0200020002000000
(1572903673.411575) can0 0A5#2309000000009102
(1572903673.411825) can0 0A4#0000000000000000
(1572903673.412055) can0 0A3#EEBDD71EEFB9071F
(1572903673.417142) can0 0C0#0000000000000000
(1572903673.418868) can0 0AD#FFFF000000000000
(1572903673.419106) can0 0AE#1000B41911051820
(1572903673.419350) can0 0AC#000001008D010000
(1572903673.419600) can0 0AB#0000000000000000
(1572903673.419844) can0 0AA#0400090000000000
(1572903673.420082) can0 0A9#9700FB00FF017B04
(1572903673.420320) can0 0A8#2200ABE905000200
(1572903673.420564) can0 0A7#19000000FDFFF3FF
(1572903673.420805) can0 0A6#FAFF0200FBFF0000
(1572903673.421045) can0 0A5#2309000000009902
(1572903673.421295) can0 0A4#0000000000000000
(1572903673.421521) can0 0A3#EEB9D71EEEB9071F
(1572903673.421753) can0 0A2#F0D8F0D865050000
(1572903673.421979) can0 0A1#B90049083908F0D8
(1572903673.422219) can0 0A0#CA00CD00CC00B700
(1572903673.426023) can0 036#00
(1572903673.426685) can0 032#00002D011F0100
(1572903673.427175) can0 0C0#0000000000000000
(1572903673.427954) can0 0AD#FFFF000000000000
(1572903673.428199) can0 0AC#0000FFFF90010000
(1572903673.428449) can0 0AB#0000000000000000
(1572903673.428693) can0 0AA#0400090000000000
(1572903673.428933) can0 0A8#2200ABE90200FEFF
(1572903673.429175) can0 0A7#19000000FFFFF9FF
(1572903673.429425) can0 0A6#0000000000000000
(1572903673.429665) can0 0A5#230900000000A502
(1572903673.429914) can0 0A4#0000000000000000
(1572903673.430140) can0 0A3#EDBDD71EEEB9071F
(1572903673.436860) can0 0AD#0000000000000000
(1572903673.437104) can0 0AC#0000040093010000
(1572903673.437354) can0 0AB#0000000000000000
(1572903673.437598) can0 0AA#0400090000000000
(1572903673.437836) can0 0A8#2200ABE9FEFF0800
(1572903673.438080) can0 0A7#1A000000FDFFF9FF
(1572903673.438323) can0 0A6#FDFFFBFFFBFF0000
(1572903673.438563) can0 0A5#230900000000A902
(1572903673.438814) can0 0A4#0000000000000000
(1572903673.439039) can0 0A3#EDBDD71EEEBD071F
(1572903673.439289) can0 0C0#0000000000000000
(1572903673.445860) can0 0AD#FFFF000000000000
(1572903673.446102) can0 0AC#0000FCFF96010000
(1572903673.446352) can0 0AB#0000000000000000
(1572903673.446596) can0 0AA#0400090000000000
(1572903673.446836) can0 0A8#2200ABE90200F8FF
(1572903673.447078) can0 0A7#19000000FAFFF5FF
(1572903673.447318) can0 0A6#02000500F8FF0000
(1572903673.447556) can0 0A5#230900000000B302
(1572903673.447806) can0 0A4#0000000000000000
(1572903673.448032) can0 0A3#EDBDD71EEEBD071F
(1572903673.448281) can0 0C0#0000000000000000
(1572903673.454859) can0 0AD#FFFF000000000000
(1572903673.455103) can0 0AC#0000010099010000
(1572903673.455352) can0 0AB#0000000000000000
(1572903673.455597) can0 0AA#0400090000000000
(1572903673.455840) can0 0A8#2200ABE9FFFF0200
(1572903673.456084) can0 0A7#16000000FFFFF9FF
(1572903673.456328) can0 0A6#0000FEFFFBFF0000
(1572903673.456569) can0 0A5#230900000000BA02
(1572903673.456818) can0 0A4#0000000000000000
(1572903673.457042) can0 0A3#EEBDD71EEEB9F71E
(1572903673.457401) can0 0C0#0000000000000000
(1572903673.463858) can0 0AD#FFFF000000000000
(1572903673.464105) can0 0AC#0000FFFF9C010000
(1572903673.464354) can0 0AB#0000000000000000
(1572903673.464599) can0 0AA#0400090000000000
(1572903673.464839) can0 0A8#2200ABE90000FEFF
(1572903673.465084) can0 0A7#180000000000F9FF
(1572903673.465332) can0 0A6#0100000000000000
(1572903673.465572) can0 0A5#230900000000BF02
(1572903673.465822) can0 0A4#0000000000000000
(1572903673.466046) can0 0A3#EEBDD71EEEBDF71E
(1572903673.467425) can0 0C0#0000000000000000
(1572903673.472855) can0 0AD#FFFF000000000000
(1572903673.473105) can0 0AC#0000FFFF9F010000
(1572903673.473355) can0 0AB#0000000000000000
(1572903673.473600) can0 0AA#0400090000000000
(1572903673.473839) can0 0A8#2200ABE90000FEFF
(1572903673.474085) can0 0A7#1A0000000000FEFF
(1572903673.474333) can0 0A6#0100000000000000
(1572903673.474575) can0 0A5#240900000000C602
(1572903673.474825) can0 0A4#0000000000000000
(1572903673.475053) can0 0A3#EEBDD71EEEBD071F
(1572903673.477527) can0 0C0#0000000000000000
(1572903673.481854) can0 0AD#0000000000000000
(1572903673.482095) can0 0AC#0000FEFFA2010000
(1572903673.482345) can0 0AB#0000000000000000
(1572903673.482589) can0 0AA#0400090000000000
(1572903673.482831) can0 0A8#2200ABE90000FBFF
(1572903673.483073) can0 0A7#16000000FDFFF9FF
(1572903673.483319) can0 0A6#0100020000000000
(1572903673.483557) can0 0A5#230900000000CA02
(1572903673.483807) can0 0A4#0000000000000000
(1572903673.484034) can0 0A3#EEBDD71EEEB9071F
(1572903673.487582) can0 0C0#0000000000000000
(1572903673.490944) can0 0AD#FFFF000000000000
(1572903673.491190) can0 0AC#00000000A5010000
(1572903673.491440) can0 0AB#0000000000000000
(1572903673.491684) can0 0AA#0400090000000000
(1572903673.491926) can0 0A8#2200ABE900000000
(1572903673.492168) can0 0A7#1A0000000200FCFF
(1572903673.492413) can0 0A6#FFFFFEFF00000000
(1572903673.492653) can0 0A5#230900000000D002
(1572903673.492903) can0 0A4#0000000000000000
(1572903673.493131) can0 0A3#EEBDD71EEEB9071F
(1572903673.494557) can0 036#00
(1572903673.495220) can0 032#00002A011F0100
(1572903673.497649) can0 0C0#0000000000000000
(1572903673.499851) can0 0AD#0000000000000000
(1572903673.500099) can0 0AC#00000100A8010000
(1572903673.500349) can0 0AB#0000000000000000
(1572903673.500593) can0 0AA#0400090000000000
(1572903673.500836) can0 0A8#2200ABE9FFFF0200
(1572903673.501080) can0 0A7#1A000000FDFFFCFF
(1572903673.501324) can0 0A6#FFFFFEFFFEFF0000
(1572903673.501562) can0 0A5#230900000000D502
(1572903673.501812) can0 0A4#0000000000000000
(1572903673.502040) can0 0A3#EEBDD71EEEB9071F
(1572903673.507699) can0 0C0#0000000000000000
(1572903673.508851) can0 0AD#FFFF000000000000
(1572903673.509097) can0 0AC#00000000AB010000
(1572903673.509347) can0 0AB#0000000000000000
(1572903673.509590) can0 0AA#0400090000000000
(1572903673.509830) can0 0A8#2200ABE9FEFF0000
(1572903673.510072) can0 0A7#19000000F6FFF7FF
(1572903673.510316) can0 0A6#0100FEFF00000000
(1572903673.510554) can0 0A5#230900000000D502
(1572903673.510804) can0 0A4#0000000000000000
(1572903673.511030) can0 0A3#EDBDD71EEEB9071F
(1572903673.517739) can0 0C0#0000000000000000
(1572903673.517989) can0 0AD#FFFF000000000000
(1572903673.518227) can0 0AE#1000B41911051820
(1572903673.518475) can0 0AC#00000000AE010000
(1572903673.518726) can0 0AB#0000000000000000
(1572903673.518969) can0 0AA#0400090000000000
(1572903673.519205) can0 0A9#9700FB00FF017A04
(1572903673.519448) can0 0A8#2200ABE900000000
(1572903673.519693) can0 0A7#18000000FFFFF7FF
(1572903673.519939) can0 0A6#FFFF000000000000
(1572903673.520177) can0 0A5#230900000000D702
(1572903673.520427) can0 0A4#0000000000000000
(1572903673.520653) can0 0A3#EDBDD71EEEB9071F
(1572903673.520885) can0 0A2#F0D8F0D865050000
(1572903673.521114) can0 0A1#B40049083908F0D8
(1572903673.521354) can0 0A0#CA00CD00CC00B700
(1572903673.526846) can0 0AD#0000000000000000
(1572903673.527092) can0 0AC#00000000B1010000
(1572903673.527342) can0 0AB#0000000000000000
(1572903673.527586) can0 0AA#0400090000000000
(1572903673.527826) can0 0A8#2200ABE903000000
(1572903673.528068) can0 0A7#19000000FAFFF9FF
(1572903673.528311) can0 0A6#FCFF020000000000
(1572903673.528549) can0 0A5#230900000000DC02
(1572903673.528799) can0 0A4#0000000000000000
(1572903673.529027) can0 0A3#EEBDD71EEEBD071F
(1572903673.529276) can0 0C0#0000000000000000
(1572903673.535846) can0 0AD#FFFF000000000000
(1572903673.536094) can0 0AC#00000000B4010000
(1572903673.536344) can0 0AB#0000000000000000
(1572903673.536588) can0 0AA#0400090000000000
(1572903673.536830) can0 0A8#2200ABE900000000
(1572903673.537074) can0 0A7#19000000FFFFF7FF
(1572903673.537324) can0 0A6#FFFF000002000000
(1572903673.537566) can0 0A5#230900000000E202
(1572903673.537816) can0 0A4#0000000000000000
(1572903673.538044) can0 0A3#EEBDD71EEEBD071F
(1572903673.538293) can0 0C0#0000000000000000
(1572903673.544847) can0 0AD#FFFF000000000000
(1572903673.545093) can0 0AC#00000100B7010000
(1572903673.545343) can0 0AB#0000000000000000
(1572903673.545587) can0 0AA#0400090000000000
(1572903673.545825) can0 0A8#2200ABE901000300
(1572903673.546067) can0 0A7#19000000FFFFF9FF
(1572903673.546311) can0 0A6#FCFF0000FDFF0000
(1572903673.546551) can0 0A5#230900000000E902
(1572903673.546801) can0 0A4#0000000000000000
(1572903673.547026) can0 0A3#EEB9D71EEEB9071F
(1572903673.547948) can0 0C0#0000000000000000
(1572903673.553934) can0 0AD#FFFF000000000000
(1572903673.554178) can0 0AC#00000300BA010000
(1572903673.554428) can0 0AB#0000000000000000
(1572903673.554672) can0 0AA#0400090000000000
(1572903673.554910) can0 0A8#2200ABE9FDFF0500
(1572903673.555151) can0 0A7#180000000200F5FF
(1572903673.555395) can0 0A6#FCFF000000000000
(1572903673.555635) can0 0A5#230900000000E802
(1572903673.555885) can0 0A4#0000000000000000
(1572903673.556109) can0 0A3#EEB9E71EEEB9171F
(1572903673.556227) can0 036#00
(1572903673.556881) can0 032#00002A011F0100
(1572903673.558023) can0 0C0#0000000000000000
(1572903673.562841) can0 0AD#0000000000000000
(1572903673.563089) can0 0AC#00000000BD010000
(1572903673.563338) can0 0AB#0000000000000000
(1572903673.563582) can0 0AA#0400090000000000
(1572903673.563822) can0 0A8#2200ABE903000000
(1572903673.564066) can0 0A7#19000000FFFFF7FF
(1572903673.564308) can0 0A6#FCFF0200F7FF0000
(1572903673.564548) can0 0A5#230900000000EC02
(1572903673.564798) can0 0A4#0000000000000000
(1572903673.565026) can0 0A3#EEBDD71EEEBD071F
(1572903673.568077) can0 0C0#0000000000000000
(1572903673.571839) can0 0AD#0000000000000000
(1572903673.572087) can0 0AC#0000FFFFC0010000
(1572903673.572337) can0 0AB#0000000000000000
(1572903673.572581) can0 0AA#0400090000000000
(1572903673.572821) can0 0A8#2200ABE9FFFFFEFF
(1572903673.573069) can0 0A7#1A000000FFFFF7FF
(1572903673.573319) can0 0A6#0100000002000000
(1572903673.573557) can0 0A5#230900000000EB02
(1572903673.573807) can0 0A4#0000000000000000
(1572903673.574035) can0 0A3#EEBDD71EEEBD071F
(1572903673.578121) can0 0C0#0000000000000000
(1572903673.580838) can0 0AD#0000000000000000
(1572903673.581082) can0 0AC#0000FBFFC3010000
(1572903673.581332) can0 0AB#0000000000000000
(1572903673.581576) can0 0AA#0400090000000000
(1572903673.581812) can0 0A8#2200ABE90100F6FF
(1572903673.582058) can0 0A7#180000000000F9FF
(1572903673.582304) can0 0A6#0400050000000000
(1572903673.582544) can0 0A5#230900000000EC02
(1572903673.582794) can0 0A4#0000000000000000
(1572903673.583022) can0 0A3#EEBDD71EEEBD071F
(1572903673.588172) can0 0C0#0000000000000000
(1572903673.589838) can0 0AD#FFFF000000000000
(1572903673.590084) can0 0AC#0000FEFFC6010000
(1572903673.590334) can0 0AB#0000000000000000
(1572903673.590578) can0 0AA#0400090000000000
(1572903673.590820) can0 0A8#2200ABE90000FBFF
(1572903673.591062) can0 0A7#19000000FDFFF9FF
(1572903673.591304) can0 0A6#01000200FEFF0000
(1572903673.591544) can0 0A5#230900000000EF02
(1572903673.591794) can0 0A4#0000000000000000
(1572903673.592022) can0 0A3#EEBDD71EEEBD071F
(1572903673.598259) can0 0C0#0000000000000000
(1572903673.598837) can0 0AD#0000000000000000
(1572903673.599083) can0 0AC#00000000C9010000
(1572903673.599333) can0 0AB#0000000000000000
(1572903673.599577) can0 0AA#0400090000000000
(1572903673.599819) can0 0A8#2200ABE900000000
(1572903673.600062) can0 0A7#1A000000FFFFF9FF
(1572903673.600308) can0 0A6#0000000008000000
(1572903673.600546) can0 0A5#230900000000F102
(1572903673.600796) can0 0A4#0000000000000000
(1572903673.601024) can0 0A3#EEBDD71EEEBD071F
(1572903673.607836) can0 0AD#FFFF000000000000
(1572903673.608080) can0 0AC#00000100CC010000
(1572903673.608330) can0 0AB#0000000000000000
(1572903673.608574) can0 0AA#0400090000000000
(1572903673.608813) can0 0A8#2200ABE901000200
(1572903673.609057) can0 0A7#1C0000000200F9FF
(1572903673.609302) can0 0A6#FCFF0000FEFF0000
(1572903673.609541) can0 0A5#230900000000F302
(1572903673.609791) can0 0A4#0000000000000000
(1572903673.610019) can0 0A3#EEBDD71EEEB9071F
(1572903673.610268) can0 0C0#0000000000000000
(1572903673.616924) can0 0AD#FFFF000000000000
(1572903673.617162) can0 0AE#1000B41911051820
(1572903673.617408) can0 0AC#0000FFFFCF010000
(1572903673.617658) can0 0AB#0000000000000000
(1572903673.617902) can0 0AA#0400090000000000
(1572903673.618136) can0 0A9#9700FB00FF017704
(1572903673.618376) can0 0A8#2200ABE9FFFFFEFF
(1572903673.618620) can0 0A7#18000000FDFFF9FF
(1572903673.618864) can0 0A6#0000FEFFFEFF0000
(1572903673.619102) can0 0A5#230900000000F702
(1572903673.619352) can0 0A4#0000000000000000
(1572903673.619579) can0 0A3#EEBDD71EEEB9071F
(1572903673.619811) can0 0A2#F0D8F0D865050000
(1572903673.620037) can0 0A1#B90049083908F0D8
(1572903673.620271) can0 0A0#CA00CD00CC00B600
(1572903673.620520) can0 0C0#0000000000000000
(1572903673.624759) can0 036#00
(1572903673.625417) can0 032#00002A011C0100
(1572903673.625831) can0 0AD#0000000000000000
(1572903673.626079) can0 0AC#00000000D2010000
(1572903673.626327) can0 0AB#0000000000000000
(1572903673.626571) can0 0AA#0400090000000000
(1572903673.626813) can0 0A8#2200ABE900000000
(1572903673.627057) can0 0A7#160000000000FCFF
(1572903673.627303) can0 0A6#00000000F8FF0000
(1572903673.627543) can0 0A5#230900000000F902
(1572903673.627792) can0 0A4#0000000000000000
(1572903673.628020) can0 0A3#EEBDD71EEEB9071F
(1572903673.628790) can0 0C0#0000000000000000
(1572903673.634830) can0 0AD#0000000000000000
(1572903673.635074) can0 0AC#0000FFFFD5010000
(1572903673.635324) can0 0AB#0000000000000000
(1572903673.635567) can0 0AA#0400090000000000
(1572903673.635807) can0 0A8#2200ABE90200FEFF
(1572903673.636051) can0 0A7#1A000000FFFFF9FF
(1572903673.636300) can0 0A6#0000020002000000
(1572903673.636539) can0 0A5#230900000000FA02
(1572903673.636789) can0 0A4#0000000000000000
(1572903673.637017) can0 0A3#EEBDD71EEEB9071F
(1572903673.638495) can0 0C0#0000000000000000
(1572903673.643829) can0 0AD#FFFF000000000000
(1572903673.644077) can0 0AC#0000FFFFD8010000
(1572903673.644327) can0 0AB#0000000000000000
(1572903673.644571) can0 0AA#0400090000000000
(1572903673.644811) can0 0A8#2200ABE90200FEFF
(1572903673.645052) can0 0A7#1A0000000200FCFF
(1572903673.645300) can0 0A6#0000030002000000
(1572903673.645546) can0 0A5#230900000000FC02
(1572903673.645796) can0 0A4#0000000000000000
(1572903673.646024) can0 0A3#EEBDD71EEEBD071F
(1572903673.648548) can0 0C0#0000000000000000
(1572903673.652828) can0 0AD#FFFF000000000000
(1572903673.653076) can0 0AC#00000000DB010000
(1572903673.653326) can0 0AB#0000000000000000
(1572903673.653570) can0 0AA#0400090000000000
(1572903673.653812) can0 0A8#2200ABE900000000
(1572903673.654058) can0 0A7#1A0000000000F9FF
(1572903673.654308) can0 0A6#0000000000000000
(1572903673.654548) can0 0A5#230900000000FF02
(1572903673.654798) can0 0A4#0000000000000000
(1572903673.655024) can0 0A3#EDBDD71EEEBD071F
(1572903673.658611) can0 0C0#0000000000000000
(1572903673.661829) can0 0AD#FFFF000000000000
(1572903673.662073) can0 0AC#00000200DE010000
(1572903673.662323) can0 0AB#0000000000000000
(1572903673.662567) can0 0AA#0400090000000000
(1572903673.662807) can0 0A8#2200ABE900000500
(1572903673.663050) can0 0A7#19000000FFFFF7FF
(1572903673.663297) can0 0A6#FDFFFEFF00000000
(1572903673.663539) can0 0A5#2309000000000103
(1572903673.663788) can0 0A4#0000000000000000
(1572903673.664016) can0 0A3#EDBDD71EEFBD071F
(1572903673.668666) can0 0C0#0000000000000000
(1572903673.670828) can0 0AD#FFFF000000000000
(1572903673.671072) can0 0AC#00000200E1010000
(1572903673.671322) can0 0AB#0000000000000000
(1572903673.671565) can0 0AA#0400090000000000
(1572903673.671805) can0 0A8#2200ABE900000500
(1572903673.672051) can0 0A7#16000000FDFF0000
(1572903673.672297) can0 0A6#FDFFFEFF02000000
(1572903673.672539) can0 0A5#2309000000000003
(1572903673.672789) can0 0A4#0000000000000000
(1572903673.673017) can0 0A3#EEBDD71EEEBD071F
(1572903673.678754) can0 0C0#0000000000000000
(1572903673.679912) can0 0AD#0000000000000000
(1572903673.680158) can0 0AC#00000000E4010000
(1572903673.680408) can0 0AB#0000000000000000
(1572903673.680652) can0 0AA#0400090000000000
(1572903673.680892) can0 0A8#2200ABE9FEFF0000
(1572903673.681139) can0 0A7#18000000FFFFF9FF
(1572903673.681389) can0 0A6#0000000000000000
(1572903673.681629) can0 0A5#230900000000FD02
(1572903673.681879) can0 0A4#0000000000000000
(1572903673.682103) can0 0A3#EEBDD71EEEBDF71E
(1572903673.686416) can0 036#00
(1572903673.687076) can0 032#00002D011F0100
(1572903673.688824) can0 0AD#FFFF000000000000
(1572903673.689070) can0 0AC#00000100E7010000
(1572903673.689320) can0 0AB#0000000000000000
(1572903673.689564) can0 0AA#0400090000000000
(1572903673.689805) can0 0A8#2200ABE90000F7FF
(1572903673.690047) can0 0A7#19000000FFFFFCFF
(1572903673.690291) can0 0A6#05000300FBFF0000
(1572903673.690531) can0 0A5#2309000000000203
(1572903673.690783) can0 0A4#0000000000000000
(1572903673.691005) can0 0A3#EEBDD71EEEB9F71E
(1572903673.691254) can0 0C0#0000000000000000
(1572903673.697824) can0 0AD#0100000000000000
(1572903673.698068) can0 0AC#0000FCFFEA010000
(1572903673.698318) can0 0AB#0000000000000000
(1572903673.698562) can0 0AA#0400090000000000
(1572903673.698800) can0 0A8#2200ABE90100F8FF
(1572903673.699046) can0 0A7#1A0000000000F9FF
(1572903673.699290) can0 0A6#FDFF0000FBFF0000
(1572903673.699531) can0 0A5#240900000000FD02
(1572903673.699783) can0 0A4#0000000000000000
(1572903673.700009) can0 0A3#EEBDD71EEEB9071F
(1572903673.700259) can0 0C0#0000000000000000
(1572903673.706823) can0 0AD#0000000000000000
(1572903673.707068) can0 0AC#00000100ED010000
(1572903673.707318) can0 0AB#0000000000000000
(1572903673.707562) can0 0AA#0400090000000000
(1572903673.707802) can0 0A8#2200ABE901000200
(1572903673.708042) can0 0A7#1A0000000900FCFF
(1572903673.708288) can0 0A6#0000FEFF00000000
(1572903673.708534) can0 0A5#230900000000FC02
(1572903673.708784) can0 0A4#0000000000000000
(1572903673.709012) can0 0A3#EEBDD71EEEBD071F
(1572903673.709269) can0 0C0#0000000000000000
(1572903673.715827) can0 0AD#FFFF000000000000
(1572903673.716064) can0 0AE#1000B41911051820
(1572903673.716314) can0 0AC#0000FFFFF0010000
(1572903673.716564) can0 0AB#0000000000000000
(1572903673.716808) can0 0AA#0400090000000000
(1572903673.717044) can0 0A9#9700FB00FF017904
(1572903673.717284) can0 0A8#2200ABE90200FDFF
(1572903673.717530) can0 0A7#190000000000F7FF
(1572903673.717774) can0 0A6#0000FEFF02000000
(1572903673.718018) can0 0A5#240900000000FF02
(1572903673.718268) can0 0A4#0000000000000000
(1572903673.718494) can0 0A3#EDBDD71EEEBD071F
(1572903673.718726) can0 0A2#F0D8F0D865050000
(1572903673.718952) can0 0A1#B90049083908F0D8
(1572903673.719185) can0 0A0#CA00CD00CC00B600
(1572903673.719435) can0 0C0#0000000000000000
(1572903673.724825) can0 0AD#FFFF000000000000
(1572903673.725069) can0 0AC#0000FDFFF3010000
(1572903673.725319) can0 0AB#0000000000000000
(1572903673.725563) can0 0AA#0400090000000000
(1572903673.725805) can0 0A8#2200ABE90000FAFF
(1572903673.726049) can0 0A7#190000000400FCFF
(1572903673.726294) can0 0A6#0200020000000000
(1572903673.726536) can0 0A5#2309000000000403
(1572903673.726786) can0 0A4#0000000000000000
(1572903673.727012) can0 0A3#EDBDD71EEEBD071F
(1572903673.729085) can0 0C0#0000000000000000
(1572903673.733822) can0 0AD#0000000000000000
(1572903673.734068) can0 0AC#0000FFFFF6010000
(1572903673.734318) can0 0AB#0000000000000000
(1572903673.734561) can0 0AA#0400090000000000
(1572903673.734801) can0 0A8#2200ABE90200FDFF
(1572903673.735045) can0 0A7#18000000FDFFFEFF
(1572903673.735293) can0 0A6#0000020000000000
(1572903673.735533) can0 0A5#2309000000000903
(1572903673.735783) can0 0A4#0000000000000000
(1572903673.736011) can0 0A3#EEBDD71EEEBD071F
(1572903673.739134) can0 0C0#0000000000000000
(1572903673.742914) can0 0AD#0100000000000000
(1572903673.743159) can0 0AC#0000FFFFF9010000
(1572903673.743409) can0 0AB#0000000000000000
(1572903673.743653) can0 0AA#0400090000000000
(1572903673.743893) can0 0A8#2200ABE90200FDFF
(1572903673.744137) can0 0A7#1A000000FDFFF7FF
(1572903673.744381) can0 0A6#00000200FEFF0000
(1572903673.744623) can0 0A5#2309000000000B03
(1572903673.744873) can0 0A4#0000000000000000
(1572903673.745100) can0 0A3#EEBDD71EEEB9071F
(1572903673.749186) can0 0C0#0000000000000000
(1572903673.750543) can0 067#200000004D95990C
(1572903673.751823) can0 0AD#0000000000000000
(1572903673.752069) can0 0AC#0000FFFFFC010000
(1572903673.752319) can0 0AB#0000000000000000
(1572903673.752562) can0 0AA#0400090000000000
(1572903673.752802) can0 0A8#2200ABE90200FDFF
(1572903673.753050) can0 0A7#1A000000FFFFF7FF
(1572903673.753298) can0 0A6#0000020000000000
(1572903673.753538) can0 0A5#2309000000000903
(1572903673.753788) can0 0A4#0000000000000000
(1572903673.754016) can0 0A3#EEBDD71EEEBD071F
(1572903673.754913) can0 036#00
(1572903673.755579) can0 032#00001C011F0100
(1572903673.759222) can0 0C0#0000000000000000
(1572903673.760824) can0 0AD#FFFF000000000000
(1572903673.761070) can0 0AC#0000FCFFFF010000
(1572903673.761319) can0 0AB#0000000000000000
(1572903673.761563) can0 0AA#0400090000000000
(1572903673.761801) can0 0A8#2200ABE90200F7FF
(1572903673.762043) can0 0A7#1B000000FAFFFEFF
(1572903673.762291) can0 0A6#0200050000000000
(1572903673.762533) can0 0A5#2309000000000D03
(1572903673.762783) can0 0A4#0000000000000000
(1572903673.763009) can0 0A3#EDBDD71EEEBD071F
(1572903673.769274) can0 0C0#0000000000000000
(1572903673.769826) can0 0AD#FFFF000000000000
(1572903673.770070) can0 0AC#0000FAFF02020000
(1572903673.770320) can0 0AB#0000000000000000
(1572903673.770564) can0 0AA#0400090000000000
(1572903673.770802) can0 0A8#2200ABE90100F4FF
(1572903673.771044) can0 0A7#16000000FDFF0300
(1572903673.771284) can0 0A6#05000500EFFF0000
(1572903673.771525) can0 0A5#2309000000000D03
(1572903673.771775) can0 0A4#0000000000000000
(1572903673.772001) can0 0A3#EDBDD71EEEBD071F
(1572903673.778825) can0 0AD#FFFF000000000000
(1572903673.779075) can0 0AC#0000000005020000
(1572903673.779325) can0 0AB#0000000000000000
(1572903673.779569) can0 0AA#0400090000000000
(1572903673.779809) can0 0A8#2200ABE903000000
(1572903673.780053) can0 0A7#18000000FFFFFCFF
(1572903673.780296) can0 0A6#FDFF020000000000
(1572903673.780537) can0 0A5#2309000000000803
(1572903673.780788) can0 0A4#0000000000000000
(1572903673.781014) can0 0A3#EEBDD71EEEBD071F
(1572903673.781263) can0 0C0#0000000000000000
(1572903673.787825) can0 0AD#FFFF000000000000
(1572903673.788071) can0 0AC#0000000008020000
(1572903673.788321) can0 0AB#0000000000000000
(1572903673.788565) can0 0AA#0400090000000000
(1572903673.788807) can0 0A8#2200ABE900000000
(1572903673.789051) can0 0A7#1A000000FFFFF9FF
(1572903673.789301) can0 0A6#0000000000000000
(1572903673.789541) can0 0A5#2309000000000A03
(1572903673.789790) can0 0A4#0000000000000000
(1572903673.790019) can0 0A3#EEBDD71EEEBD071F
(1572903673.790268) can0 0C0#0000000000000000
(1572903673.796826) can0 0AD#FFFF000000000000
(1572903673.797074) can0 0AC#000000000B020000
(1572903673.797324) can0 0AB#0000000000000000
(1572903673.797567) can0 0AA#0400090000000000
(1572903673.797808) can0 0A8#2200ABE9FEFF0000
(1572903673.798051) can0 0A7#16000000FAFF0000
(1572903673.798293) can0 0A6#0200FEFFFEFF0000
(1572903673.798535) can0 0A5#2309000000000C03
(1572903673.798785) can0 0A4#0000000000000000
(1572903673.799013) can0 0A3#EEBDD71EEEBD071F
(1572903673.799772) can0 0C0#0000000000000000
(1572903673.805970) can0 0AD#0100000000000000
(1572903673.806212) can0 0AC#0000FDFF0E020000
(1572903673.806462) can0 0AB#0000000000000000
(1572903673.806706) can0 0AA#0400090000000000
(1572903673.806949) can0 0A8#2200ABE900000000
(1572903673.807196) can0 0A7#1B000000FFFFFCFF
(1572903673.807442) can0 0A6#00000000FEFF0000
(1572903673.807684) can0 0A5#2309000000000B03
(1572903673.807934) can0 0A4#0000000000000000
(1572903673.808162) can0 0A3#EEBDD71EEEBD071F
(1572903673.809532) can0 0C0#0000000000000000
(1572903673.814890) can0 0AD#FFFF000000000000
(1572903673.815126) can0 0AE#1000B41911051820
(1572903673.815374) can0 0AC#0000010011020000
(1572903673.815624) can0 0AB#0000000000000000
(1572903673.815868) can0 0AA#0400090000000000
(1572903673.816106) can0 0A9#9700FB00FF017C04
(1572903673.816346) can0 0A8#2200ABE901000200
(1572903673.816590) can0 0A7#180000000000FCFF
(1572903673.816707) can0 036#00
(1572903673.816951) can0 0A6#FDFF0000F8FF0000
(1572903673.817191) can0 0A5#2309000000000F03
(1572903673.817414) can0 032#00002D01190100
(1572903673.817664) can0 0A4#0000000000000000
(1572903673.817890) can0 0A3#EDBDD71EEEBD071F
(1572903673.818122) can0 0A2#F0D8F0D865050000
(1572903673.818348) can0 0A1#B90049083908F0D8
(1572903673.818584) can0 0A0#CA00CD00CC00BA00
(1572903673.819638) can0 0C0#0000000000000000
(1572903673.823882) can0 0AD#0100000000000000
(1572903673.824130) can0 0AC#0000FFFF14020000
(1572903673.824380) can0 0AB#0000000000000000
(1572903673.824624) can0 0AA#0400090000000000
(1572903673.824864) can0 0A8#2200ABE9FFFFFCFF
(1572903673.825108) can0 0A7#190000000400FCFF
(1572903673.825354) can0 0A6#0200000002000000
(1572903673.825596) can0 0A5#2309000000000D03
(1572903673.825846) can0 0A4#0000000000000000
(1572903673.826071) can0 0A3#EDBDD71EEEBD071F
(1572903673.829696) can0 0C0#0000000000000000
(1572903673.832880) can0 0AD#0000000000000000
(1572903673.833127) can0 0AC#0000010017020000
(1572903673.833377) can0 0AB#0000000000000000
(1572903673.833621) can0 0AA#0400090000000000
(1572903673.833863) can0 0A8#2200ABE9FFFF0100
(1572903673.834106) can0 0A7#19000000FFFFF7FF
(1572903673.834350) can0 0A6#0000FEFFFDFF0000
(1572903673.834592) can0 0A5#2309000000000D03
(1572903673.834842) can0 0A4#0000000000000000
(1572903673.835068) can0 0A3#EDBDD71EEEBD071F
(1572903673.839740) can0 0C0#0000000000000000
(1572903673.841882) can0 0AD#FFFF000000000000
(1572903673.842127) can0 0AC#000003001A020000
(1572903673.842377) can0 0AB#0000000000000000
(1572903673.842621) can0 0AA#0400090000000000
(1572903673.842862) can0 0A8#2200ABE9FEFF0700
(1572903673.843107) can0 0A7#19000000FDFFFEFF
(1572903673.843351) can0 0A6#FDFFFBFF00000000
(1572903673.843593) can0 0A5#2309000000000C03
(1572903673.843843) can0 0A4#0000000000000000
(1572903673.844071) can0 0A3#EEBDD71EEEBD071F
(1572903673.849799) can0 0C0#0000000000000000
(1572903673.850883) can0 0AD#FFFF000000000000
(1572903673.851127) can0 0AC#0000FFFF1D020000
(1572903673.851377) can0 0AB#0000000000000000
(1572903673.851621) can0 0AA#0400090000000000
(1572903673.851861) can0 0A8#2200ABE900000500
(1572903673.852108) can0 0A7#18000000FDFFFCFF
(1572903673.852353) can0 0A6#FDFFFEFF00000000
(1572903673.852593) can0 0A5#2309000000000F03
(1572903673.852843) can0 0A4#0000000000000000
(1572903673.853071) can0 0A3#EEBDD71EEEBD071F
(1572903673.859877) can0 0AD#0000000000000000
(1572903673.860125) can0 0AC#0000000020020000
(1572903673.860375) can0 0AB#0000000000000000
(1572903673.860619) can0 0AA#0400090000000000
(1572903673.860861) can0 0A8#2200ABE900000000
(1572903673.861105) can0 0A7#1A000000FFFFF9FF
(1572903673.861353) can0 0A6#0000000005000000
(1572903673.861594) can0 0A5#2309000000001003
(1572903673.861844) can0 0A4#0000000000000000
(1572903673.862072) can0 0A3#EEBDD71EEEBD071F
(1572903673.862322) can0 0C0#0000000000000000
(1572903673.868964) can0 0AD#0100000000000000
(1572903673.869208) can0 0AC#0000FFFF23020000
(1572903673.869458) can0 0AB#0000000000000000
(1572903673.869701) can0 0AA#0400090000000000
(1572903673.869947) can0 0A8#2200ABE9FFFFFDFF
(1572903673.870189) can0 0A7#18000000FAFFF9FF
(1572903673.870435) can0 0A6#00000000FAFF0000
(1572903673.870679) can0 0A5#2209000000001303
(1572903673.870929) can0 0A4#0000000000000000
(1572903673.871157) can0 0A3#EEBDD71EEEBD071F
(1572903673.871406) can0 0C0#0000000000000000
(1572903673.877878) can0 0AD#FFFF000000000000
(1572903673.878124) can0 0AC#0000000026020000
(1572903673.878374) can0 0AB#0000000000000000
(1572903673.878618) can0 0AA#0400090000000000
(1572903673.878858) can0 0A8#2200ABE901000200
(1572903673.879106) can0 0A7#1C0000000000F9FF
(1572903673.879348) can0 0A6#FDFF0000FDFF0000
(1572903673.879591) can0 0A5#2209000000001403
(1572903673.879841) can0 0A4#0000000000000000
(1572903673.880069) can0 0A3#EEBDD71EEEBD071F
(1572903673.880319) can0 0C0#0000000000000000
(1572903673.885132) can0 036#00
(1572903673.885792) can0 032#00002D011F0100
(1572903673.886876) can0 0AD#FFFF000000000000
(1572903673.887120) can0 0AC#0000FFFF29020000
(1572903673.887370) can0 0AB#0000000000000000
(1572903673.887613) can0 0AA#0400090000000000
(1572903673.887853) can0 0A8#2200ABE90200FDFF
(1572903673.888095) can0 0A7#19000000FFFFFCFF
