(1572903257.411950) can0 0C0#0000000000000000
(1572903257.422047) can0 0C0#0000000000000000
(1572903257.432135) can0 0C0#0000000000000000
(1572903257.442189) can0 0C0#0000000000000000
(1572903257.452286) can0 0C0#0000000000000000
(1572903257.462336) can0 0C0#0000000000000000
(1572903257.472445) can0 0C0#0000000000000000
(1572903257.482497) can0 0C0#0000000000000000
(1572903257.492602) can0 0C0#0000000000000000
(1572903257.498012) can0 0C1#010001000055
(1572903257.498647) can0 036#00
(1572903257.499305) can0 032#00002401190100
(1572903257.502681) can0 0C0#0000000000000000
(1572903257.512725) can0 0C0#0000000000000000
(1572903257.522816) can0 0C0#0000000000000000
(1572903257.532856) can0 0C0#0000000000000000
(1572903257.542949) can0 0C0#0000000000000000
(1572903257.552995) can0 0C0#0000000000000000
(1572903257.563092) can0 0C0#0000000000000000
(1572903257.566607) can0 0C1#010001000055
(1572903257.567243) can0 036#03
(1572903257.567895) can0 032#00002A011C0100
(1572903257.573151) can0 0C0#0000000000000000
(1572903257.583245) can0 0C0#0000000000000000
(1572903257.593282) can0 0C0#0000000000000000
(1572903257.603324) can0 0C0#0000000000000000
(1572903257.612084) can0 0AD#8300000000000000
(1572903257.612330) can0 0AC#000081FF04000000
(1572903257.612580) can0 0AB#0000000000000000
(1572903257.612823) can0 0AA#0000090000008000
(1572903257.613065) can0 0A8#2200ABE9FEFF07FF
(1572903257.613303) can0 0A7#19000D00FAFFF9FF
(1572903257.613541) can0 0A6#79FF8EFF71FF0000
(1572903257.613781) can0 0A5#3F0213001F0013D0
(1572903257.614031) can0 0A4#0000000000000000
(1572903257.614259) can0 0A3#ED01D01EEEB9F71E
(1572903257.614508) can0 0C0#0000000000000000
(1572903257.621146) can0 0AD#2300000000000000
(1572903257.621392) can0 0AC#000084FF07000000
(1572903257.621642) can0 0AB#0000000000000000
(1572903257.621886) can0 0AA#0000090000008000
(1572903257.622124) can0 0A8#2200ABE90D000DFF
(1572903257.622366) can0 0A7#19000300FAFFF9FF
(1572903257.622605) can0 0A6#7DFF8FFF76FF0000
(1572903257.622845) can0 0A5#210200000000C7FC
(1572903257.623095) can0 0A4#0000000000000000
(1572903257.623319) can0 0A3#EDBDD71EEEB9F71E
(1572903257.623606) can0 0C0#0000000000000000
(1572903257.628250) can0 0C1#010001000055
(1572903257.628884) can0 036#03
(1572903257.629544) can0 032#00002D011C0100
(1572903257.630144) can0 0AD#0300000000000000
(1572903257.630388) can0 0AC#00008DFF0A000000
(1572903257.630638) can0 0AB#0000000000000000
(1572903257.630882) can0 0AA#0000090000008000
(1572903257.631122) can0 0A8#2200ABE90D001DFF
(1572903257.631366) can0 0A7#19000000FFFFF7FF
(1572903257.631603) can0 0A6#85FF98FF7EFF0000
(1572903257.631849) can0 0A5#1902FFFFFFFF0527
(1572903257.632099) can0 0A4#0000000000000000
(1572903257.632323) can0 0A3#EEBDD71EEEB9F71E
(1572903257.633558) can0 0C0#0000000000000000
(1572903257.639148) can0 0AD#0100000000000000
(1572903257.639392) can0 0C2#0100010000550000
(1572903257.639634) can0 0AC#000092FF0D000000
(1572903257.639883) can0 0AB#0000000000000000
(1572903257.640127) can0 0AA#0000090000008000
(1572903257.640367) can0 0A8#2200ABE910002BFF
(1572903257.640615) can0 0A7#18000000FFFFF5FF
(1572903257.640859) can0 0A6#8FFF9BFF7FFF0000
(1572903257.641099) can0 0A5#170200000000F14E
(1572903257.641349) can0 0A4#0000000000000000
(1572903257.641573) can0 0A3#EEB9D71EEEB9F71E
(1572903257.643589) can0 0C0#0000000000000000
(1572903257.648145) can0 0AD#0100000000000000
(1572903257.648387) can0 0AC#00009DFF10000000
(1572903257.648637) can0 0AB#0000000000000000
(1572903257.648880) can0 0AA#0000090000008000
(1572903257.649118) can0 0A8#2200ABE90E003DFF
(1572903257.649364) can0 0A7#16000000FDFFFCFF
(1572903257.649602) can0 0A6#98FFA4FF8FFF0000
(1572903257.649840) can0 0A5#180200000000AB74
(1572903257.650090) can0 0A4#0000000000000000
(1572903257.650314) can0 0A3#EDBDD71EEEB9F71E
(1572903257.653632) can0 0C0#0000000000000000
(1572903257.657144) can0 0AD#FFFF000000000000
(1572903257.657388) can0 0AC#0000A3FF13000000
(1572903257.657638) can0 0AB#0000000000000000
(1572903257.657881) can0 0AA#0000090000008000
(1572903257.658119) can0 0A8#2200ABE90A0048FF
(1572903257.658363) can0 0A7#160000000000F7FF
(1572903257.658597) can0 0A6#9CFFACFF96FF0000
(1572903257.658835) can0 0A5#1802000000005098
(1572903257.659085) can0 0A4#0000000000000000
(1572903257.659309) can0 0A3#EDBDD71EEEB9F71E
(1572903257.663673) can0 0C0#0000000000000000
(1572903257.666317) can0 0AD#F302000000000000
(1572903257.666565) can0 0AC#0000310016000000
(1572903257.666815) can0 0AB#0000000000000000
(1572903257.667060) can0 0AA#0000090000008000
(1572903257.667295) can0 0A8#2200ABE966FF6100
(1572903257.667537) can0 0A7#19000000FFFFF9FF
(1572903257.667773) can0 0A6#9FFFACFF96FF0000
(1572903257.668007) can0 0A5#0707AD001D0146BB
(1572903257.668257) can0 0A4#0000000000000000
(1572903257.668481) can0 0A3#EDB9D71EEEB9F71E
(1572903257.673715) can0 0C0#0000000000000000
(1572903257.675221) can0 0AD#B602000000000000
(1572903257.675467) can0 0AC#0000250019000000
(1572903257.675717) can0 0AB#0000000000000000
(1572903257.675961) can0 0AA#0000090000008000
(1572903257.676197) can0 0A8#2200ABE96FFF4900
(1572903257.676440) can0 0A7#190000000000FCFF
(1572903257.676678) can0 0A6#A7FFB6FF9BFF0000
(1572903257.676910) can0 0A5#CC0614002000E6DA
(1572903257.677160) can0 0A4#0000000000000000
(1572903257.677384) can0 0A3#EDB9D71EEEB9F71E
(1572903257.683805) can0 0C0#0000000000000000
(1572903257.684223) can0 0AD#8F00000000000000
(1572903257.684473) can0 0AC#000020001C000000
(1572903257.684723) can0 0AB#0000000000000000
(1572903257.684967) can0 0AA#0000090000008000
(1572903257.685205) can0 0A8#2200ABE96FFF3900
(1572903257.685445) can0 0A7#15000000FDFFF9FF
(1572903257.685680) can0 0A6#ACFFB7FFA4FF0000
(1572903257.685914) can0 0A5#9C06FEFFFCFF63F9
(1572903257.686164) can0 0A4#0000000000000000
(1572903257.686388) can0 0A3#EDBDD71EEEB9F71E
(1572903257.693224) can0 0AD#0100000000000000
(1572903257.693472) can0 0AC#00001B001F000000
(1572903257.693722) can0 0AB#0000000000000000
(1572903257.693966) can0 0AA#0000090000008000
(1572903257.694202) can0 0A8#2200ABE974FF3500
(1572903257.694444) can0 0A7#1C000000FAFFFCFF
(1572903257.694678) can0 0A6#AEFFBCFFA1FF0000
(1572903257.694912) can0 0A5#9106FFFFFEFF2916
(1572903257.695161) can0 0A4#0000000000000000
(1572903257.695385) can0 0A3#EDBDD71EEEB9F71E
(1572903257.695635) can0 0C0#0000000000000000
(1572903257.696733) can0 0C1#010001000055
(1572903257.697371) can0 036#00
(1572903257.698027) can0 032#000027011F0100
(1572903257.699141) can0 0C2#0100010000550000
(1572903257.702223) can0 0AD#0D00000000000000
(1572903257.702462) can0 0AE#1000B41911051820
(1572903257.702706) can0 0AC#0000180022000000
(1572903257.702956) can0 0AB#0000000000000000
(1572903257.703200) can0 0AA#0400090000008000
(1572903257.703434) can0 0A9#9700FB00FF016E04
(1572903257.703670) can0 0A8#2200ABE985FF3000
(1572903257.703916) can0 0A7#16000000FAFFF7FF
(1572903257.704152) can0 0A6#B6FFC6FFAEFF0000
(1572903257.704388) can0 0A5#8E060000FFFF5C31
(1572903257.704638) can0 0A4#0000000000000000
(1572903257.704862) can0 0A3#EDB9D71EEEB9F71E
(1572903257.705094) can0 0A2#F0D8F0D865050000
(1572903257.705330) can0 0A1#C4001C081208F0D8
(1572903257.705571) can0 0A0#700070007000BC00
(1572903257.705821) can0 0C0#0000000000000000
(1572903257.711223) can0 0AD#0800000000000000
(1572903257.711471) can0 0AC#0000180025000000
(1572903257.711721) can0 0AB#0000000000000000
(1572903257.711964) can0 0AA#0400090000000000
(1572903257.712206) can0 0A8#2200ABE97DFF3000
(1572903257.712448) can0 0A7#1A0000000200F7FF
(1572903257.712688) can0 0A6#B4FFC1FFB1FF0000
(1572903257.712926) can0 0A5#8C0600000000124B
(1572903257.713176) can0 0A4#0000000000000000
(1572903257.713400) can0 0A3#EDB9D71EEEB9F71E
(1572903257.714169) can0 0C0#0000000000000000
(1572903257.720219) can0 0AD#0200000000000000
(1572903257.720465) can0 0AC#0000160028000000
(1572903257.720715) can0 0AB#0000000000000000
(1572903257.720959) can0 0AA#0400090000000000
(1572903257.721197) can0 0A8#2200ABE987FF2B00
(1572903257.721443) can0 0A7#16000000FDFFFEFF
(1572903257.721683) can0 0A6#BCFFC4FFAFFF0000
(1572903257.721919) can0 0A5#8D06000000006663
(1572903257.722169) can0 0A4#0000000000000000
(1572903257.722395) can0 0A3#EDB9D71EEEB9071F
(1572903257.724030) can0 0C0#0000000000000000
(1572903257.729304) can0 0AD#0300000000000000
(1572903257.729550) can0 0AC#000015002B000000
(1572903257.729800) can0 0AB#0000000000000000
(1572903257.730044) can0 0AA#0400090000000000
(1572903257.730277) can0 0A8#2200ABE991FF2900
(1572903257.730521) can0 0A7#1A000000FDFFF9FF
(1572903257.730759) can0 0A6#BCFFC4FFB9FF0000
(1572903257.730995) can0 0A5#8C06000000008C7A
(1572903257.731245) can0 0A4#0000000000000000
(1572903257.731471) can0 0A3#EDB9D71EEEB9071F
(1572903257.734087) can0 0C0#0000000000000000
(1572903257.738217) can0 0AD#0000000000000000
(1572903257.738464) can0 0AC#000015002E000000
(1572903257.738713) can0 0AB#0000000000000000
(1572903257.738956) can0 0AA#0400090000000000
(1572903257.739190) can0 0A8#2200ABE992FF2900
(1572903257.739432) can0 0A7#16000000FDFFF9FF
(1572903257.739672) can0 0A6#C0FFCAFFBDFF0000
(1572903257.739912) can0 0A5#8D06000000000990
(1572903257.740164) can0 0A4#0000000000000000
(1572903257.740386) can0 0A3#EDB9D71EEEB9F71E
(1572903257.744184) can0 0C0#0000000000000000
(1572903257.747214) can0 0AD#0100000000000000
(1572903257.747462) can0 0AC#0000130031000000
(1572903257.747712) can0 0AB#0000000000000000
(1572903257.747956) can0 0AA#0400090000000000
(1572903257.748194) can0 0A8#2200ABE99BFF2600
(1572903257.748439) can0 0A7#1A000000F8FFF7FF
(1572903257.748675) can0 0A6#C4FFD0FFB5FF0000
(1572903257.748913) can0 0A5#8B060000000085A4
(1572903257.749165) can0 0A4#0000000000000000
(1572903257.749387) can0 0A3#EDBDD71EEEB9F71E
(1572903257.754242) can0 0C0#0000000000000000
(1572903257.756214) can0 0AD#0100000000000000
(1572903257.756460) can0 0AC#0000120034000000
(1572903257.756710) can0 0AB#0000000000000000
(1572903257.756954) can0 0AA#0400090000000000
(1572903257.757190) can0 0A8#2200ABE999FF2900
(1572903257.757434) can0 0A7#1A0000000000FCFF
(1572903257.757672) can0 0A6#C2FFD0FFBCFF0000
(1572903257.757912) can0 0A5#8C0600000000E0B7
(1572903257.758162) can0 0A4#0000000000000000
(1572903257.758390) can0 0A3#EEBDD71EEFB9F71E
(1572903257.758603) can0 0C1#010001000055
(1572903257.759135) can0 0C2#0100010000550000
(1572903257.759851) can0 036#00
(1572903257.760505) can0 032#00002A011C0100
(1572903257.764315) can0 0C0#0000000000000000
(1572903257.765211) can0 0AD#0100000000000000
(1572903257.765455) can0 0AC#0000120037000000
(1572903257.765705) can0 0AB#0000000000000000
(1572903257.765949) can0 0AA#0400090000000000
(1572903257.766183) can0 0A8#2200ABE99EFF2300
(1572903257.766430) can0 0A7#190000000000F9FF
(1572903257.766668) can0 0A6#C7FFD0FFC8FF0000
(1572903257.766908) can0 0A5#8C060000000038CA
(1572903257.767158) can0 0A4#0000000000000000
(1572903257.767382) can0 0A3#EEB9D71EEEB9F71E
(1572903257.774212) can0 0AD#FFFF000000000000
(1572903257.774460) can0 0AC#00000C003A000000
(1572903257.774710) can0 0AB#0000000000000000
(1572903257.774954) can0 0AA#0400090000000000
(1572903257.775190) can0 0A8#2200ABE9AEFF1800
(1572903257.775434) can0 0A7#18000000FDFFF7FF
(1572903257.775672) can0 0A6#D6FFD5FFCEFF0000
(1572903257.775910) can0 0A5#8C060000000082DB
(1572903257.776160) can0 0A4#0000000000000000
(1572903257.776383) can0 0A3#EEB9D71EEEB9F71E
(1572903257.776633) can0 0C0#0000000000000000
(1572903257.783211) can0 0AD#0000000000000000
(1572903257.783454) can0 0AC#00000E003D000000
(1572903257.783704) can0 0AB#0000000000000000
(1572903257.783948) can0 0AA#0400090000000000
(1572903257.784186) can0 0A8#2200ABE9AEFF2200
(1572903257.784428) can0 0A7#16000000FDFFF9FF
(1572903257.784667) can0 0A6#CCFFDAFFC5FF0000
(1572903257.784906) can0 0A5#8C0600000000E0EB
(1572903257.785156) can0 0A4#0000000000000000
(1572903257.785384) can0 0A3#EEBDD71EEFB9F71E
(1572903257.785633) can0 0C0#0000000000000000
(1572903257.792299) can0 0AD#FFFF000000000000
(1572903257.792547) can0 0AC#00000C0040000000
(1572903257.792797) can0 0AB#0000000000000000
(1572903257.793040) can0 0AA#0400090000000000
(1572903257.793276) can0 0A8#2200ABE9B6FF1800
(1572903257.793522) can0 0A7#180000000400F7FF
(1572903257.793762) can0 0A6#D5FFDDFFD7FF0000
(1572903257.794004) can0 0A5#8C060000000077FB
(1572903257.794254) can0 0A4#0000000000000000
(1572903257.794480) can0 0A3#EDB9D71EEFB9F71E
(1572903257.794765) can0 0C0#0000000000000000
(1572903257.801211) can0 0AD#FFFF000000000000
(1572903257.801449) can0 0AE#1000B41911051820
(1572903257.801693) can0 0AC#00000C0043000000
(1572903257.801943) can0 0AB#0000000000000000
(1572903257.802187) can0 0AA#0400090000000000
(1572903257.802421) can0 0A9#9700FB00FF016904
(1572903257.802657) can0 0A8#2200ABE9B9FF1600
(1572903257.802904) can0 0A7#18000000FFFFF9FF
(1572903257.803144) can0 0A6#DAFFDCFFD6FF0000
(1572903257.803382) can0 0A5#8C0600000000EC09
(1572903257.803632) can0 0A4#0000000000000000
(1572903257.803856) can0 0A3#EDB9D71EEEB9F71E
(1572903257.804088) can0 0A2#F0D8F0D865050000
(1572903257.804318) can0 0A1#C00049083908F0D8
(1572903257.804554) can0 0A0#AF00AF00AF00BA00
(1572903257.804803) can0 0C0#0000000000000000
(1572903257.810205) can0 0AD#0100000000000000
(1572903257.810453) can0 0AC#00000E0046000000
(1572903257.810703) can0 0AB#0000000000000000
(1572903257.810947) can0 0AA#0400090000000000
(1572903257.811183) can0 0A8#2200ABE9B4FF1C00
(1572903257.811424) can0 0A7#19000000FFFFFCFF
(1572903257.811664) can0 0A6#D4FFDAFFD0FF0000
(1572903257.811904) can0 0A5#8C0600000000BC17
(1572903257.812154) can0 0A4#0000000000000000
(1572903257.812378) can0 0A3#EDBDD71EEEB9F71E
(1572903257.814641) can0 0C0#0000000000000000
(1572903257.819203) can0 0AD#0000000000000000
(1572903257.819449) can0 0AC#00000C0049000000
(1572903257.819699) can0 0AB#0000000000000000
(1572903257.819943) can0 0AA#0400090000000000
(1572903257.820181) can0 0A8#2200ABE9B9FF1800
(1572903257.820427) can0 0A7#1A0000000000F9FF
(1572903257.820669) can0 0A6#D9FFDDFFD5FF0000
(1572903257.820905) can0 0A5#8C0600000000C624
(1572903257.821155) can0 0A4#0000000000000000
(1572903257.821378) can0 0A3#EDBDD71EEEB9F71E
(1572903257.824686) can0 0C0#0000000000000000
(1572903257.826736) can0 036#00
(1572903257.827392) can0 032#00002D011F0100
(1572903257.828202) can0 0AD#0100000000000000
(1572903257.828448) can0 0AC#00000B004C000000
(1572903257.828698) can0 0AB#0000000000000000
(1572903257.828942) can0 0AA#0400090000000000
(1572903257.829176) can0 0A8#2200ABE9CAFF1600
(1572903257.829420) can0 0A7#1A000000FAFFF3FF
(1572903257.829658) can0 0A6#DEFFE8FFDAFF0000
(1572903257.829899) can0 0A5#8C06000000001F31
(1572903257.830149) can0 0A4#0000000000000000
(1572903257.830373) can0 0A3#EDBDD71EEEB9F71E
(1572903257.834760) can0 0C0#0000000000000000
(1572903257.837204) can0 0AD#FFFF000000000000
(1572903257.837446) can0 0AC#00000B004F000000
(1572903257.837696) can0 0AB#0000000000000000
(1572903257.837940) can0 0AA#0400090000000000
(1572903257.838176) can0 0A8#2200ABE9C7FF1300
(1572903257.838420) can0 0A7#18000000FFFFFCFF
(1572903257.838660) can0 0A6#E0FFE3FFDDFF0000
(1572903257.838896) can0 0A5#8C0600000000C63C
(1572903257.839146) can0 0A4#0000000000000000
(1572903257.839370) can0 0A3#EDBDD71EEEB9F71E
(1572903257.844808) can0 0C0#0000000000000000
(1572903257.846201) can0 0AD#FFFF000000000000
(1572903257.846447) can0 0AC#0000090052000000
(1572903257.846697) can0 0AB#0000000000000000
(1572903257.846941) can0 0AA#0400090000000000
(1572903257.847179) can0 0A8#2200ABE9C7FF1200
(1572903257.847426) can0 0A7#1A000000FFFFF7FF
(1572903257.847666) can0 0A6#E2FFE2FFE2FF0000
(1572903257.847902) can0 0A5#8D0600000000C947
(1572903257.848152) can0 0A4#0000000000000000
(1572903257.848376) can0 0A3#EDBDD71EEEB9F71E
(1572903257.854912) can0 0C0#0000000000000000
(1572903257.855286) can0 0AD#0000000000000000
(1572903257.855534) can0 0AC#00000A0055000000
(1572903257.855784) can0 0AB#0000000000000000
(1572903257.856028) can0 0AA#0400090000000000
(1572903257.856264) can0 0A8#2200ABE9CEFF1500
(1572903257.856510) can0 0A7#180000000000F9FF
(1572903257.856747) can0 0A6#E3FFE6FFE4FF0000
(1572903257.856985) can0 0A5#8C06000000004752
(1572903257.857235) can0 0A4#0000000000000000
(1572903257.857461) can0 0A3#EEB9D71EEEB9071F
(1572903257.864197) can0 0AD#0100000000000000
(1572903257.864441) can0 0AC#0000090058000000
(1572903257.864691) can0 0AB#0000000000000000
(1572903257.864935) can0 0AA#0400090000000000
(1572903257.865171) can0 0A8#2200ABE9CDFF1300
(1572903257.865417) can0 0A7#190000000000F7FF
(1572903257.865655) can0 0A6#E2FFE8FFE2FF0000
(1572903257.865895) can0 0A5#8C0600000000005C
(1572903257.866144) can0 0A4#0000000000000000
(1572903257.866368) can0 0A3#EEB9D71EEEB9F71E
(1572903257.866618) can0 0C0#0000000000000000
(1572903257.873194) can0 0AD#0100000000000000
(1572903257.873438) can0 0AC#000008005B000000
(1572903257.873688) can0 0AB#0000000000000000
(1572903257.873932) can0 0AA#0400090000000000
(1572903257.874170) can0 0A8#2200ABE9D5FF1000
(1572903257.874414) can0 0A7#1A0000000000F7FF
(1572903257.874652) can0 0A6#E7FFECFFE4FF0000
(1572903257.874887) can0 0A5#8C06000000004665
(1572903257.875137) can0 0A4#0000000000000000
(1572903257.875361) can0 0A3#EEBDD71EEEB9F71E
(1572903257.875610) can0 0C0#0000000000000000
(1572903257.882192) can0 0AD#0100000000000000
(1572903257.882440) can0 0AC#000008005E000000
(1572903257.882690) can0 0AB#0000000000000000
(1572903257.882934) can0 0AA#0400090000000000
(1572903257.883176) can0 0A8#2200ABE9CFFF1000
(1572903257.883424) can0 0A7#18000000FFFFF9FF
(1572903257.883664) can0 0A6#E5FFE7FFE0FF0000
(1572903257.883901) can0 0A5#8C06000000000B6E
(1572903257.884151) can0 0A4#0000000000000000
(1572903257.884375) can0 0A3#EEBDD71EEEB9F71E
(1572903257.885159) can0 0C0#0000000000000000
(1572903257.888379) can0 036#00
(1572903257.889047) can0 032#000027011C0100
(1572903257.891195) can0 0AD#0000000000000000
(1572903257.891439) can0 0AC#0000060061000000
(1572903257.891689) can0 0AB#0000000000000000
(1572903257.891933) can0 0AA#0400090000000000
(1572903257.892171) can0 0A8#2200ABE9D5FF1000
(1572903257.892415) can0 0A7#19000000FFFFF7FF
(1572903257.892655) can0 0A6#E7FFEBFFE7FF0000
(1572903257.892890) can0 0A5#8C06000000005876
(1572903257.893140) can0 0A4#0000000000000000
(1572903257.893364) can0 0A3#EDBDD71EEEB9F71E
(1572903257.895149) can0 0C0#0000000000000000
(1572903257.900195) can0 0AD#FFFF000000000000
(1572903257.900433) can0 0AE#1000B41911051820
(1572903257.900679) can0 0AC#0000060064000000
(1572903257.900928) can0 0AB#0000000000000000
(1572903257.901174) can0 0AA#0400090000000000
(1572903257.901406) can0 0A9#9700FB00FF016F04
(1572903257.901642) can0 0A8#2200ABE9DDFF0D00
(1572903257.901886) can0 0A7#18000000FFFFFCFF
(1572903257.902124) can0 0A6#EBFFF0FFE5FF0000
(1572903257.902364) can0 0A5#8C06000000002C7E
(1572903257.902614) can0 0A4#0000000000000000
(1572903257.902838) can0 0A3#EDBDD71EEEB9F71E
(1572903257.903070) can0 0A2#F0D8F0D865050000
(1572903257.903299) can0 0A1#C00049083908F0D8
(1572903257.903539) can0 0A0#CA00CC00CC00BF00
(1572903257.905216) can0 0C0#0000000000000000
(1572903257.909188) can0 0AD#0100000000000000
(1572903257.909432) can0 0AC#0000070067000000
(1572903257.909682) can0 0AB#0000000000000000
(1572903257.909926) can0 0AA#0400090000000000
(1572903257.910164) can0 0A8#2200ABE9D6FF0D00
(1572903257.910410) can0 0A7#16000000FFFF0100
(1572903257.910648) can0 0A6#E9FFEBFFEAFF0000
(1572903257.910884) can0 0A5#8C06000000009085
(1572903257.911134) can0 0A4#0000000000000000
(1572903257.911358) can0 0A3#EDBDD71EEEB9F71E
(1572903257.915268) can0 0C0#0000000000000000
(1572903257.918276) can0 0AD#0000000000000000
(1572903257.918520) can0 0AC#000005006A000000
(1572903257.918770) can0 0AB#0000000000000000
(1572903257.919013) can0 0AA#0400090000000000
(1572903257.919253) can0 0A8#2200ABE9DAFF0A00
(1572903257.919497) can0 0A7#16000000FFFFFEFF
(1572903257.919735) can0 0A6#EBFFEBFFEEFF0000
(1572903257.919971) can0 0A5#8C0600000000A38C
(1572903257.920221) can0 0A4#0000000000000000
(1572903257.920445) can0 0A3#EEBDD71EEEB9F71E
(1572903257.925364) can0 0C0#0000000000000000
(1572903257.927188) can0 0AD#0000000000000000
(1572903257.927436) can0 0AC#000006006D000000
(1572903257.927686) can0 0AB#0000000000000000
(1572903257.927929) can0 0AA#0400090000000000
(1572903257.928165) can0 0A8#2200ABE9DDFF0D00
(1572903257.928409) can0 0A7#1A000000FFFFF5FF
(1572903257.928647) can0 0A6#ECFFF0FFECFF0000
(1572903257.928887) can0 0A5#8D06000000002B93
(1572903257.929137) can0 0A4#0000000000000000
(1572903257.929361) can0 0A3#EEB9D71EEEB9F71E
(1572903257.935379) can0 0C0#0000000000000000
(1572903257.936185) can0 0AD#0000000000000000
(1572903257.936428) can0 0AC#0000050070000000
(1572903257.936678) can0 0AB#0000000000000000
(1572903257.936922) can0 0AA#0400090000000000
(1572903257.937160) can0 0A8#2200ABE9E5FF0A00
(1572903257.937404) can0 0A7#14000000FFFFFEFF
(1572903257.937648) can0 0A6#F0FFF3FFF3FF0000
(1572903257.937886) can0 0A5#8C06000000006999
(1572903257.938135) can0 0A4#0000000000000000
(1572903257.938359) can0 0A3#EEB9D71EEEB9F71E
(1572903257.945183) can0 0AD#0000000000000000
(1572903257.945427) can0 0AC#0000050073000000
(1572903257.945677) can0 0AB#0000000000000000
(1572903257.945921) can0 0AA#0400090000000000
(1572903257.946157) can0 0A8#2200ABE9DEFF0A00
(1572903257.946399) can0 0A7#190000000200F7FF
(1572903257.946639) can0 0A6#EEFFEFFFEEFF0000
(1572903257.946877) can0 0A5#8C0600000000499F
(1572903257.947127) can0 0A4#0000000000000000
(1572903257.947351) can0 0A3#EEB9D71EEEB9F71E
(1572903257.947600) can0 0C0#0000000000000000
(1572903257.954182) can0 0AD#0100000000000000
(1572903257.954428) can0 0AC#0000060076000000
(1572903257.954678) can0 0AB#0000000000000000
(1572903257.954921) can0 0AA#0400090000000000
(1572903257.955157) can0 0A8#2200ABE9DDFF0C00
(1572903257.955399) can0 0A7#15000000FFFFFCFF
(1572903257.955637) can0 0A6#ECFFF0FFEAFF0000
(1572903257.955873) can0 0A5#8C0600000000DDA4
(1572903257.956123) can0 0A4#0000000000000000
(1572903257.956347) can0 0A3#EEBDD71EEEB9F71E
(1572903257.956596) can0 0C0#0000000000000000
(1572903257.957085) can0 036#00
(1572903257.957749) can0 032#00002A011C0100
(1572903257.963183) can0 0AD#FFFF000000000000
(1572903257.963428) can0 0AC#0000030079000000
(1572903257.963678) can0 0AB#0000000000000000
(1572903257.963922) can0 0AA#0400090000000000
(1572903257.964162) can0 0A8#2200ABE9E4FF0700
(1572903257.964408) can0 0A7#16000000FDFFFCFF
(1572903257.964646) can0 0A6#F3FFF0FFF0FF0000
(1572903257.964884) can0 0A5#8C060000000026AA
(1572903257.965134) can0 0A4#0000000000000000
(1572903257.965358) can0 0A3#EEBDD71EEEB9F71E
(1572903257.965663) can0 0C0#0000000000000000
(1572903257.972183) can0 0AD#FFFF000000000000
(1572903257.972431) can0 0AC#000006007C000000
(1572903257.972681) can0 0AB#0000000000000000
(1572903257.972925) can0 0AA#0400090000000000
(1572903257.973163) can0 0A8#2200ABE9E4FF0C00
(1572903257.973404) can0 0A7#19000000FDFFF9FF
(1572903257.973646) can0 0A6#EEFFF4FFF1FF0000
(1572903257.973884) can0 0A5#8C060000000026AF
(1572903257.974134) can0 0A4#0000000000000000
(1572903257.974358) can0 0A3#EEBDD71EEEB9F71E
(1572903257.975650) can0 0C0#0000000000000000
(1572903257.981266) can0 0AD#0000000000000000
(1572903257.981512) can0 0AC#000004007F000000
(1572903257.981762) can0 0AB#0000000000000000
(1572903257.982006) can0 0AA#0400090000000000
(1572903257.982240) can0 0A8#2200ABE9E8FF0900
(1572903257.982481) can0 0A7#1A000000FDFFF5FF
(1572903257.982723) can0 0A6#F5FFF8FFEFFF0000
(1572903257.982959) can0 0A5#8C0600000000E1B3
(1572903257.983209) can0 0A4#0000000000000000
(1572903257.983433) can0 0A3#EDBDD71EEEB9F71E
(1572903257.985706) can0 0C0#0000000000000000
(1572903257.990180) can0 0AD#FFFF000000000000
(1572903257.990432) can0 0AC#0000030082000000
(1572903257.990682) can0 0AB#0000000000000000
(1572903257.990926) can0 0AA#0400090000000000
(1572903257.991164) can0 0A8#2200ABE9E2FF0700
(1572903257.991411) can0 0A7#1A000000FFFFF7FF
(1572903257.991651) can0 0A6#F3FFEFFFF0FF0000
(1572903257.991887) can0 0A5#8C06000000004BB8
(1572903257.992137) can0 0A4#0000000000000000
(1572903257.992361) can0 0A3#EDB9D71EEEB9F71E
(1572903257.995761) can0 0C0#0000000000000000
(1572903257.999177) can0 0AD#0100000000000000
(1572903257.999415) can0 0AE#1000B41911051820
(1572903257.999659) can0 0AC#0000030085000000
(1572903257.999908) can0 0AB#0000000000000000
(1572903258.000152) can0 0AA#0400090000000000
(1572903258.000386) can0 0A9#9600FB00FF017404
(1572903258.000628) can0 0A8#2200ABE9F0FF0600
(1572903258.000874) can0 0A7#1A000000FAFFF9FF
(1572903258.001114) can0 0A6#F6FFF8FFF3FF0000
(1572903258.001354) can0 0A5#8B060000000082BC
(1572903258.001604) can0 0A4#0000000000000000
(1572903258.001827) can0 0A3#EDB9D71EEEB9F71E
(1572903258.002059) can0 0A2#F0D8F0D865050000
(1572903258.002287) can0 0A1#C10049083908F0D8
(1572903258.002525) can0 0A0#C900CC00CA00BF00
(1572903258.005808) can0 0C0#0000000000000000
(1572903258.008177) can0 0AD#0000000000000000
(1572903258.008425) can0 0AC#0000010088000000
(1572903258.008675) can0 0AB#0000000000000000
(1572903258.008919) can0 0AA#0400090000000000
(1572903258.009159) can0 0A8#2200ABE9F2FF0000
(1572903258.009400) can0 0A7#19000000FFFFFCFF
(1572903258.009642) can0 0A6#FCFFF6FFF4FF0000
(1572903258.009882) can0 0A5#8C060000000080C0
(1572903258.010132) can0 0A4#0000000000000000
(1572903258.010356) can0 0A3#EDBDD71EEEB9F71E
(1572903258.015903) can0 0C0#0000000000000000
(1572903258.017175) can0 0AD#FFFF000000000000
(1572903258.017425) can0 0AC#000003008B000000
(1572903258.017675) can0 0AB#0000000000000000
(1572903258.017919) can0 0AA#0400090000000000
(1572903258.018159) can0 0A8#2200ABE9F2FF0500
(1572903258.018403) can0 0A7#16000000FDFFF7FF
(1572903258.018643) can0 0A6#F7FFFAFFF2FF0000
(1572903258.018883) can0 0A5#8C06000000003FC4
(1572903258.019001) can0 036#00
(1572903258.019251) can0 0A4#0000000000000000
(1572903258.019475) can0 0A3#EDBDD71EEEB9F71E
(1572903258.019696) can0 032#000024011C0100
(1572903258.025941) can0 0C0#0000000000000000
(1572903258.026191) can0 0AD#FFFF000000000000
(1572903258.026439) can0 0AC#000004008E000000
(1572903258.026688) can0 0AB#0000000000000000
(1572903258.026932) can0 0AA#0400090000000000
(1572903258.027168) can0 0A8#2200ABE9E8FF0800
(1572903258.027412) can0 0A7#1B0000000200F9FF
(1572903258.027652) can0 0A6#F2FFF4FFF6FF0000
(1572903258.027892) can0 0A5#8C0600000000D1C7
(1572903258.028142) can0 0A4#0000000000000000
(1572903258.028368) can0 0A3#EDBDD71EEEB9071F
(1572903258.035176) can0 0AD#FFFF000000000000
(1572903258.035419) can0 0AC#0000030091000000
(1572903258.035669) can0 0AB#0000000000000000
(1572903258.035913) can0 0AA#0400090000000000
(1572903258.036151) can0 0A8#2200ABE9F5FF0800
(1572903258.036393) can0 0A7#19000000FDFFF9FF
(1572903258.036635) can0 0A6#F6FFFEFFF3FF0000
(1572903258.036873) can0 0A5#8D06000000002DCB
(1572903258.037123) can0 0A4#0000000000000000
(1572903258.037349) can0 0A3#EDBDD71EEEB9071F
(1572903258.037598) can0 0C0#0000000000000000
(1572903258.044260) can0 0AD#0100000000000000
(1572903258.044506) can0 0AC#0000020094000000
(1572903258.044756) can0 0AB#0000000000000000
(1572903258.045000) can0 0AA#0400090000000000
(1572903258.045240) can0 0A8#2200ABE9F1FF0300
(1572903258.045482) can0 0A7#18000000FAFFF5FF
(1572903258.045726) can0 0A6#F8FFF8FFF6FF0000
(1572903258.045962) can0 0A5#8B060000000066CE
(1572903258.046212) can0 0A4#0000000000000000
(1572903258.046436) can0 0A3#EEBDD71EEEB9F71E
(1572903258.046685) can0 0C0#0000000000000000
(1572903258.053175) can0 0AD#FFFF000000000000
(1572903258.053421) can0 0AC#0000010097000000
(1572903258.053671) can0 0AB#0000000000000000
(1572903258.053915) can0 0AA#0400090000000000
(1572903258.054157) can0 0A8#2200ABE9F3FF0300
(1572903258.054399) can0 0A7#160000000000F0FF
(1572903258.054639) can0 0A6#F6FFFEFFF4FF0000
(1572903258.054874) can0 0A5#8C060000000052D1
(1572903258.055124) can0 0A4#0000000000000000
(1572903258.055352) can0 0A3#EEBDD71EEFB9F71E
(1572903258.056154) can0 0C0#0000000000000000
(1572903258.062176) can0 0AD#FFFF000000000000
(1572903258.062422) can0 0AC#000002009A000000
(1572903258.062672) can0 0AB#0000000000000000
(1572903258.062916) can0 0AA#0400090000000000
(1572903258.063154) can0 0A8#2200ABE9F1FF0500
(1572903258.063397) can0 0A7#16000000FDFF0100
(1572903258.063639) can0 0A6#F7FFF9FFFBFF0000
(1572903258.063879) can0 0A5#8C060000000029D4
(1572903258.064129) can0 0A4#0000000000000000
(1572903258.064357) can0 0A3#EEBDD71EEFB9F71E
(1572903258.066211) can0 0C0#0000000000000000
(1572903258.071173) can0 0AD#0000000000000000
(1572903258.071419) can0 0AC#000003009D000000
(1572903258.071669) can0 0AB#0000000000000000
(1572903258.071913) can0 0AA#0400090000000000
(1572903258.072151) can0 0A8#2200ABE9F6FF0500
(1572903258.072395) can0 0A7#18000000FDFFF7FF
(1572903258.072635) can0 0A6#F8FFFCFFF8FF0000
(1572903258.072871) can0 0A5#8C0600000000D5D6
(1572903258.073121) can0 0A4#0000000000000000
(1572903258.073345) can0 0A3#EEBDD71EEEB9F71E
(1572903258.076272) can0 0C0#0000000000000000
(1572903258.080172) can0 0AD#0100000000000000
(1572903258.080420) can0 0AC#00000100A0000000
(1572903258.080670) can0 0AB#0000000000000000
(1572903258.080914) can0 0AA#0400090000000000
(1572903258.081152) can0 0A8#2200ABE9F8FF0200
(1572903258.081402) can0 0A7#1B0000000000F9FF
(1572903258.081644) can0 0A6#FBFFFDFFF8FF0000
(1572903258.081880) can0 0A5#8C060000000052D9
(1572903258.082129) can0 0A4#0000000000000000
(1572903258.082353) can0 0A3#EEBDD71EEEB9F71E
(1572903258.086365) can0 0C0#0000000000000000
(1572903258.087105) can0 036#00
(1572903258.087772) can0 032#00002A011F0100
(1572903258.089174) can0 0AD#FFFF000000000000
(1572903258.089422) can0 0AC#00000100A3000000
(1572903258.089672) can0 0AB#0000000000000000
(1572903258.089916) can0 0AA#0400090000000000
(1572903258.090158) can0 0A8#2200ABE9F6FF0200
(1572903258.090406) can0 0A7#1A000000FFFFF7FF
(1572903258.090650) can0 0A6#FBFFFAFFF6FF0000
(1572903258.090890) can0 0A5#8D0600000000B5DB
(1572903258.091140) can0 0A4#0000000000000000
(1572903258.091364) can0 0A3#EEBDD71EEEB9F71E
(1572903258.096405) can0 0C0#0000000000000000
(1572903258.098177) can0 0AD#FFFF000000000000
(1572903258.098415) can0 0AE#1000B41911051820
(1572903258.098663) can0 0AC#00000200A6000000
(1572903258.098913) can0 0AB#0000000000000000
(1572903258.099156) can0 0AA#0400090000000000
(1572903258.099392) can0 0A9#9700FB00FF018404
(1572903258.099630) can0 0A8#2200ABE9EBFF0500
(1572903258.099876) can0 0A7#180000000000F9FF
(1572903258.100114) can0 0A6#F6FFF5FF10000000
(1572903258.100350) can0 0A5#8C0600000000F2DD
(1572903258.100599) can0 0A4#0000000000000000
(1572903258.100823) can0 0A3#EEBDD71EEEB9F71E
(1572903258.101055) can0 0A2#F0D8F0D865050000
(1572903258.101283) can0 0A1#C10049083908F0D8
(1572903258.101523) can0 0A0#C900CC00CC00BD00
(1572903258.106460) can0 0C0#0000000000000000
(1572903258.107262) can0 0AD#FFFF000000000000
(1572903258.107508) can0 0AC#00000100A9000000
(1572903258.107758) can0 0AB#0000000000000000
(1572903258.108002) can0 0AA#0400090000000000
(1572903258.108246) can0 0A8#2200ABE9F7FF0200
(1572903258.108488) can0 0A7#19000000FDFFF7FF
(1572903258.108731) can0 0A6#FCFFFBFFFDFF0000
(1572903258.108971) can0 0A5#8C060000000019E0
(1572903258.109221) can0 0A4#0000000000000000
(1572903258.109445) can0 0A3#EDBDD71EEEB9F71E
(1572903258.116173) can0 0AD#0000000000000000
(1572903258.116419) can0 0AC#00000100AC000000
(1572903258.116669) can0 0AB#0000000000000000
(1572903258.116913) can0 0AA#0400090000000000
(1572903258.117155) can0 0A8#2200ABE9FEFF0200
(1572903258.117403) can0 0A7#1B000000FFFFFCFF
(1572903258.117647) can0 0A6#FCFF0000FDFF0000
(1572903258.117887) can0 0A5#8C06000000001BE2
(1572903258.118137) can0 0A4#0000000000000000
(1572903258.118360) can0 0A3#EDBDD71EEEB9F71E
(1572903258.118610) can0 0C0#0000000000000000
(1572903258.125172) can0 0AD#0000000000000000
(1572903258.125418) can0 0AC#00000000AF000000
(1572903258.125668) can0 0AB#0000000000000000
(1572903258.125912) can0 0AA#0400090000000000
(1572903258.126154) can0 0A8#2200ABE9F8FF0100
(1572903258.126397) can0 0A7#1A000000FDFFF9FF
(1572903258.126641) can0 0A6#FDFFFBFFFEFF0000
(1572903258.126883) can0 0A5#8C060000000000E4
(1572903258.127133) can0 0A4#0000000000000000
(1572903258.127357) can0 0A3#EDBDD71EEEB9F71E
(1572903258.127606) can0 0C0#0000000000000000
(1572903258.134174) can0 0AD#FFFF000000000000
(1572903258.134422) can0 0AC#00000000B2000000
(1572903258.134672) can0 0AB#0000000000000000
(1572903258.134916) can0 0AA#0400090000000000
(1572903258.135156) can0 0A8#2200ABE9F2FF0000
(1572903258.135398) can0 0A7#190000000200F3FF
(1572903258.135644) can0 0A6#FDFFF6FF00000000
(1572903258.135884) can0 0A5#8C0600000000D3E5
(1572903258.136134) can0 0A4#0000000000000000
(1572903258.136358) can0 0A3#EDBDD71EEEB9F71E
(1572903258.136685) can0 0C0#0000000000000000
(1572903258.143173) can0 0AD#0000000000000000
(1572903258.143421) can0 0AC#00000100B5000000
(1572903258.143671) can0 0AB#0000000000000000
(1572903258.143915) can0 0AA#0400090000000000
(1572903258.144159) can0 0A8#2200ABE9F7FF0200
(1572903258.144403) can0 0A7#18000000FDFFF9FF
(1572903258.144645) can0 0A6#FBFFFCFFF8FF0000
(1572903258.144885) can0 0A5#8B060000000085E7
(1572903258.145135) can0 0A4#0000000000000000
(1572903258.145361) can0 0A3#EDBDD71EEEB9071F
(1572903258.146720) can0 0C0#0000000000000000
(1572903258.148772) can0 036#00
(1572903258.149428) can0 032#00002A011C0100
(1572903258.152234) can0 0AD#0000000000000000
(1572903258.152482) can0 0AC#00000000B8000000
(1572903258.152732) can0 0AB#0000000000000000
(1572903258.152975) can0 0AA#0400090000000000
(1572903258.153215) can0 0A8#2200ABE9F6FF0000
(1572903258.153457) can0 0A7#160000000200F7FF
(1572903258.153697) can0 0A6#FEFFF9FF03000000
(1572903258.153937) can0 0A5#8C060000000019E9
(1572903258.154189) can0 0A4#0000000000000000
(1572903258.154411) can0 0A3#EDBDD71EEEB9F71E
(1572903258.156842) can0 0C0#0000000000000000
(1572903258.161232) can0 0AD#0100000000000000
(1572903258.161478) can0 0AC#00000000BB000000
(1572903258.161728) can0 0AB#0000000000000000
(1572903258.161971) can0 0AA#0400090000000000
(1572903258.162213) can0 0A8#2200ABE9FBFF0000
(1572903258.162459) can0 0A7#190000000000F7FF
(1572903258.162699) can0 0A6#FEFFFCFFF9FF0000
(1572903258.162935) can0 0A5#8C0600000000A2EA
(1572903258.163185) can0 0A4#0000000000000000
(1572903258.163409) can0 0A3#EEBDD71EEEB9F71E
(1572903258.166882) can0 0C0#0000000000000000
(1572903258.170320) can0 0AD#0000000000000000
(1572903258.170572) can0 0AC#00000000BE000000
(1572903258.170822) can0 0AB#0000000000000000
(1572903258.171066) can0 0AA#0400090000000000
(1572903258.171308) can0 0A8#2200ABE9FBFF0000
(1572903258.171556) can0 0A7#18000000FFFFF9FF
(1572903258.171799) can0 0A6#FBFFFDFFF9FF0000
(1572903258.172037) can0 0A5#8C06000000000EEC
(1572903258.172287) can0 0A4#0000000000000000
(1572903258.172511) can0 0A3#EEBDD71EEEB9F71E
(1572903258.176938) can0 0C0#0000000000000000
(1572903258.179234) can0 0AD#FFFF000000000000
(1572903258.179484) can0 0AC#00000200C1000000
(1572903258.179734) can0 0AB#0000000000000000
(1572903258.179977) can0 0AA#0400090000000000
(1572903258.180219) can0 0A8#2200ABE9F3FF0400
(1572903258.180461) can0 0A7#19000000FFFFFCFF
(1572903258.180701) can0 0A6#F8FFFAFFF9FF0000
(1572903258.180937) can0 0A5#8C060000000068ED
(1572903258.181187) can0 0A4#0000000000000000
(1572903258.181411) can0 0A3#EDBDD71EEEB9F71E
(1572903258.186982) can0 0C0#0000000000000000
(1572903258.188228) can0 0AD#0100000000000000
(1572903258.188478) can0 0AC#00000000C4000000
(1572903258.188728) can0 0AB#0000000000000000
(1572903258.188972) can0 0AA#0400090000000000
(1572903258.189214) can0 0A8#2200ABE9F6FFFFFF
(1572903258.189458) can0 0A7#16000000FFFFFCFF
(1572903258.189702) can0 0A6#FFFFF8FFFDFF0000
(1572903258.189938) can0 0A5#8C0600000000ADEE
(1572903258.190187) can0 0A4#0000000000000000
(1572903258.190415) can0 0A3#EEBDD71EEEB9071F
(1572903258.197047) can0 0C0#0000000000000000
(1572903258.197295) can0 0AD#0000000000000000
(1572903258.197533) can0 0AE#1000B41911051820
(1572903258.197779) can0 0AC#00000000C7000000
(1572903258.198029) can0 0AB#0000000000000000
(1572903258.198273) can0 0AA#0400090000000000
(1572903258.198509) can0 0A9#9700FB00FF017904
(1572903258.198751) can0 0A8#2200ABE9F8FF0500
(1572903258.198997) can0 0A7#1A0000000000F9FF
(1572903258.199241) can0 0A6#F9FFFEFFFDFF0000
(1572903258.199480) can0 0A5#8C0600000000E0EF
(1572903258.199730) can0 0A4#0000000000000000
(1572903258.199958) can0 0A3#EEBDD71EEEB9071F
(1572903258.200191) can0 0A2#F0D8F0D865050000
(1572903258.200422) can0 0A1#C20049083908F0D8
(1572903258.200662) can0 0A0#CA00CC00CC00BF00
(1572903258.206228) can0 0AD#0000000000000000
(1572903258.206476) can0 0AC#00000100CA000000
(1572903258.206726) can0 0AB#0000000000000000
(1572903258.206970) can0 0AA#0400090000000000
(1572903258.207212) can0 0A8#2200ABE9FEFF0200
(1572903258.207454) can0 0A7#18000000FAFFFCFF
(1572903258.207696) can0 0A6#FCFF0000F1FF0000
(1572903258.207936) can0 0A5#8C060000000005F1
(1572903258.208186) can0 0A4#0000000000000000
(1572903258.208414) can0 0A3#EEBDD71EEEB9071F
(1572903258.208663) can0 0C0#0000000000000000
(1572903258.215229) can0 0AD#FFFF000000000000
(1572903258.215475) can0 0AC#00000200CD000000
(1572903258.215725) can0 0AB#0000000000000000
(1572903258.215968) can0 0AA#0400090000000000
(1572903258.216206) can0 0A8#2200ABE9FCFF0500
(1572903258.216452) can0 0A7#190000000000FEFF
(1572903258.216694) can0 0A6#FAFF0000FEFF0000
(1572903258.216934) can0 0A5#8C060000000019F2
(1572903258.217184) can0 0A4#0000000000000000
(1572903258.217410) can0 0A3#EEB9D71EEEB9071F
(1572903258.217528) can0 036#00
(1572903258.217777) can0 0C0#0000000000000000
(1572903258.218000) can0 032#00002A012D0100
(1572903258.224224) can0 0AD#0100000000000000
(1572903258.224470) can0 0AC#00000300D0000000
(1572903258.224719) can0 0AB#0000000000000000
(1572903258.224963) can0 0AA#0400090000000000
(1572903258.225203) can0 0A8#2200ABE900000500
(1572903258.225447) can0 0A7#16000000FFFFFCFF
(1572903258.225687) can0 0A6#FAFF0300FEFF0000
(1572903258.225925) can0 0A5#8C060000000018F3
(1572903258.226175) can0 0A4#0000000000000000
(1572903258.226403) can0 0A3#EEBDD71EEEB9071F
(1572903258.227262) can0 0C0#0000000000000000
(1572903258.233312) can0 0AD#FFFF000000000000
(1572903258.233558) can0 0AC#00000000D3000000
(1572903258.233808) can0 0AB#0000000000000000
(1572903258.234052) can0 0AA#0400090000000000
(1572903258.234293) can0 0A8#2200ABE9FEFF0000
(1572903258.234540) can0 0A7#18000000FFFFF9FF
(1572903258.234788) can0 0A6#0000FBFFFBFF0000
(1572903258.235029) can0 0A5#8C060000000013F4
(1572903258.235279) can0 0A4#0000000000000000
(1572903258.235507) can0 0A3#EEBDD71EEEB9071F
(1572903258.237306) can0 0C0#0000000000000000
(1572903258.242220) can0 0AD#0100000000000000
(1572903258.242466) can0 0AC#00000200D6000000
(1572903258.242716) can0 0AB#0000000000000000
(1572903258.242960) can0 0AA#0400090000000000
(1572903258.243200) can0 0A8#2200ABE9F9FF0400
(1572903258.243442) can0 0A7#19000000FAFFF9FF
(1572903258.243684) can0 0A6#FAFFFEFFF8FF0000
(1572903258.243923) can0 0A5#8B0600000000FFF4
(1572903258.244173) can0 0A4#0000000000000000
(1572903258.244399) can0 0A3#EDBDD71EEEB9071F
(1572903258.247359) can0 0C0#0000000000000000
(1572903258.251222) can0 0AD#FFFF000000000000
(1572903258.251468) can0 0AC#00000000D9000000
(1572903258.251718) can0 0AB#0000000000000000
(1572903258.251962) can0 0AA#0400090000000000
(1572903258.252204) can0 0A8#2200ABE900000000
(1572903258.252452) can0 0A7#18000000FFFFF9FF
(1572903258.252704) can0 0A6#00000000FBFF0000
(1572903258.252940) can0 0A5#8C0600000000D6F5
(1572903258.253190) can0 0A4#0000000000000000
(1572903258.253420) can0 0A3#EEBDD71EEFC1071F
(1572903258.257458) can0 0C0#0000000000000000
(1572903258.260220) can0 0AD#0000000000000000
(1572903258.260468) can0 0AC#00000000DC000000
(1572903258.260718) can0 0AB#0000000000000000
(1572903258.260961) can0 0AA#0400090000000000
(1572903258.261203) can0 0A8#2200ABE9FBFFFFFF
(1572903258.261449) can0 0A7#180000000000FEFF
(1572903258.261697) can0 0A6#0000FBFFFBFF0000
(1572903258.261935) can0 0A5#8C06000000009FF6
(1572903258.262185) can0 0A4#0000000000000000
(1572903258.262413) can0 0A3#EEBDD71EEEBD071F
(1572903258.267502) can0 0C0#0000000000000000
(1572903258.269218) can0 0AD#FFFF000000000000
(1572903258.269468) can0 0AC#00000000DF000000
(1572903258.269718) can0 0AB#0000000000000000
(1572903258.269962) can0 0AA#0400090000000000
(1572903258.270202) can0 0A8#2200ABE9FEFF0000
(1572903258.270447) can0 0A7#18000000FFFFFEFF
(1572903258.270691) can0 0A6#0000FEFFFEFF0000
(1572903258.270931) can0 0A5#8C060000000062F7
(1572903258.271181) can0 0A4#0000000000000000
(1572903258.271405) can0 0A3#EEBDD71EEEBDF71E
(1572903258.277554) can0 0C0#0000000000000000
(1572903258.278216) can0 0AD#0000000000000000
(1572903258.278464) can0 0AC#00000100E2000000
(1572903258.278714) can0 0AB#0000000000000000
(1572903258.278958) can0 0AA#0400090000000000
(1572903258.279076) can0 036#00
(1572903258.279316) can0 0A8#2200ABE9F6FF0300
(1572903258.279557) can0 0A7#19000000FDFFF9FF
(1572903258.279781) can0 032#00002D011F0100
(1572903258.280029) can0 0A6#FBFFFBFF00000000
(1572903258.280271) can0 0A5#8C060000000019F8
(1572903258.280521) can0 0A4#0000000000000000
(1572903258.280745) can0 0A3#EEBDD71EEEB9F71E
(1572903258.287215) can0 0AD#0000000000000000
(1572903258.287462) can0 0AC#00000000E5000000
(1572903258.287712) can0 0AB#0000000000000000
(1572903258.287956) can0 0AA#0400090000000000
(1572903258.288194) can0 0A8#2200ABE9FCFF0100
(1572903258.288440) can0 0A7#180000000000F9FF
(1572903258.288688) can0 0A6#FEFFFEFF00000000
(1572903258.288928) can0 0A5#8B0600000000CDF8
(1572903258.289178) can0 0A4#0000000000000000
(1572903258.289402) can0 0A3#EEBDD71EEEB9F71E
(1572903258.289651) can0 0C0#0000000000000000
(1572903258.296301) can0 0AD#0000000000000000
(1572903258.296539) can0 0AE#1000B41911051820
(1572903258.296787) can0 0AC#00000000E8000000
(1572903258.297036) can0 0AB#0000000000000000
(1572903258.297280) can0 0AA#0400090000000000
(1572903258.297516) can0 0A9#9700FB00FF017E04
(1572903258.297756) can0 0A8#2200ABE9F9FF0000
(1572903258.298000) can0 0A7#19000000FFFFF7FF
(1572903258.298248) can0 0A6#FBFF000000000000
(1572903258.298486) can0 0A5#8B060000000076F9
(1572903258.298736) can0 0A4#0000000000000000
(1572903258.298960) can0 0A3#EEBDD71EEEB9F71E
(1572903258.299192) can0 0A2#F0D8F0D865050000
(1572903258.299420) can0 0A1#C10049083908F0D8
(1572903258.299656) can0 0A0#CA00CC00CB00BF00
(1572903258.299905) can0 0C0#0000000000000000
(1572903258.305215) can0 0AD#FFFF000000000000
(1572903258.305463) can0 0AC#00000100EB000000
(1572903258.305713) can0 0AB#0000000000000000
(1572903258.305956) can0 0AA#0400090000000000
(1572903258.306198) can0 0A8#2200ABE9FEFFFFFF
(1572903258.306440) can0 0A7#1A0000000000F7FF
(1572903258.306684) can0 0A6#0000FEFF01000000
(1572903258.306928) can0 0A5#8C060000000015FA
(1572903258.307178) can0 0A4#0000000000000000
(1572903258.307402) can0 0A3#EDBDD71EEEB9F71E
(1572903258.307721) can0 0C0#0000000000000000
(1572903258.314211) can0 0AD#0000000000000000
(1572903258.314459) can0 0AC#00000000EE000000
(1572903258.314709) can0 0AB#0000000000000000
(1572903258.314953) can0 0AA#0400090000000000
(1572903258.315193) can0 0A8#2200ABE9FDFF0100
(1572903258.315435) can0 0A7#19000000FDFFF9FF
(1572903258.315677) can0 0A6#FEFFFEFFFCFF0000
(1572903258.315916) can0 0A5#8C0600000000AEFA
(1572903258.316166) can0 0A4#0000000000000000
(1572903258.316390) can0 0A3#EDBDD71EEEB9F71E
(1572903258.317784) can0 0C0#0000000000000000
(1572903258.323208) can0 0AD#0000000000000000
(1572903258.323456) can0 0AC#00000000F1000000
(1572903258.323706) can0 0AB#0000000000000000
(1572903258.323949) can0 0AA#0400090000000000
(1572903258.324189) can0 0A8#2200ABE9FDFF0100
(1572903258.324433) can0 0A7#1A000000FDFFFEFF
(1572903258.324679) can0 0A6#FEFFFFFFFFFF0000
(1572903258.324921) can0 0A5#8C060000000039FB
(1572903258.325171) can0 0A4#0000000000000000
(1572903258.325395) can0 0A3#EEBDD71EEEB9F71E
(1572903258.327877) can0 0C0#0000000000000000
(1572903258.332207) can0 0AD#0100000000000000
(1572903258.332455) can0 0AC#0000FFFFF4000000
(1572903258.332705) can0 0AB#0000000000000000
(1572903258.332949) can0 0AA#0400090000000000
(1572903258.333193) can0 0A8#2200ABE90000FDFF
(1572903258.333437) can0 0A7#18000000FFFFFCFF
(1572903258.333683) can0 0A6#0300FFFFFFFF0000
(1572903258.333923) can0 0A5#8B0600000000C2FB
(1572903258.334173) can0 0A4#0000000000000000
(1572903258.334399) can0 0A3#EDBDD71EEEB9071F
(1572903258.337930) can0 0C0#0000000000000000
(1572903258.341210) can0 0AD#FFFF000000000000
(1572903258.341460) can0 0AC#00000000F7000000
(1572903258.341710) can0 0AB#0000000000000000
(1572903258.341954) can0 0AA#0400090000000000
(1572903258.342196) can0 0A8#2200ABE9FCFFFEFF
(1572903258.342436) can0 0A7#15000000FDFFF9FF
(1572903258.342682) can0 0A6#0000FCFF00000000
(1572903258.342923) can0 0A5#8B060000000040FC
(1572903258.343173) can0 0A4#0000000000000000
(1572903258.343400) can0 0A3#EDBDD71EEEB9071F
(1572903258.347473) can0 036#00
(1572903258.347965) can0 0C0#0000000000000000
(1572903258.348503) can0 032#00002A01190100
(1572903258.350205) can0 0AD#0000000000000000
(1572903258.350455) can0 0AC#00000000FA000000
(1572903258.350705) can0 0AB#0000000000000000
(1572903258.350949) can0 0AA#0400090000000000
(1572903258.351193) can0 0A8#2200ABE9FFFFFFFF
(1572903258.351439) can0 0A7#18000000FFFFF7FF
(1572903258.351685) can0 0A6#0000FFFFFFFF0000
(1572903258.351925) can0 0A5#8C0600000000BCFC
(1572903258.352175) can0 0A4#0000000000000000
(1572903258.352401) can0 0A3#EDBDD71EEEB9071F
(1572903258.358044) can0 0C0#0000000000000000
(1572903258.359296) can0 0AD#FFFF000000000000
(1572903258.359546) can0 0AC#00000000FD000000
(1572903258.359795) can0 0AB#0000000000000000
(1572903258.360039) can0 0AA#0400090000000000
(1572903258.360279) can0 0A8#2200ABE9FDFF0100
(1572903258.360525) can0 0A7#18000000FFFFF7FF
(1572903258.360773) can0 0A6#0000FFFF07000000
(1572903258.361015) can0 0A5#8C060000000029FD
(1572903258.361265) can0 0A4#0000000000000000
(1572903258.361491) can0 0A3#EDBDD71EEEB9071F
(1572903258.368087) can0 0C0#0000000000000000
(1572903258.368337) can0 0AD#FFFF000000000000
(1572903258.368585) can0 0AC#0000010000010000
(1572903258.368834) can0 0AB#0000000000000000
(1572903258.369078) can0 0AA#0400090000000000
(1572903258.369320) can0 0A8#2200ABE9FBFF0300
(1572903258.369564) can0 0A7#16000000FFFFF9FF
(1572903258.369810) can0 0A6#FBFFFFFFFFFF0000
(1572903258.370048) can0 0A5#8C060000000092FD
(1572903258.370298) can0 0A4#0000000000000000
(1572903258.370526) can0 0A3#EEBDD71EEEB9071F
(1572903258.377202) can0 0AD#FFFF000000000000
(1572903258.377450) can0 0AC#0000000003010000
(1572903258.377699) can0 0AB#0000000000000000
(1572903258.377943) can0 0AA#0400090000000000
(1572903258.378183) can0 0A8#2200ABE9FAFF0000
(1572903258.378427) can0 0A7#18000000FDFFF9FF
(1572903258.378671) can0 0A6#FEFFFCFFFFFF0000
(1572903258.378913) can0 0A5#8C0600000000F8FD
(1572903258.379163) can0 0A4#0000000000000000
(1572903258.379393) can0 0A3#EEBDD71EEFB9071F
(1572903258.379642) can0 0C0#0000000000000000
(1572903258.386202) can0 0AD#FFFF000000000000
(1572903258.386450) can0 0AC#0000000006010000
(1572903258.386700) can0 0AB#0000000000000000
(1572903258.386944) can0 0AA#0400090000000000
(1572903258.387184) can0 0A8#2200ABE9FEFF0100
(1572903258.387428) can0 0A7#16000000FFFFF9FF
(1572903258.387674) can0 0A6#FEFFFFFFFFFF0000
(1572903258.387914) can0 0A5#8C060000000055FE
(1572903258.388163) can0 0A4#0000000000000000
(1572903258.388393) can0 0A3#EEBDD71EEFB9071F
(1572903258.388642) can0 0C0#0000000000000000
(1572903258.395200) can0 0AD#0100000000000000
(1572903258.395438) can0 0AE#1000B41911051820
(1572903258.395684) can0 0AC#0000000009010000
(1572903258.395934) can0 0AB#0000000000000000
(1572903258.396178) can0 0AA#0400090000000000
(1572903258.396414) can0 0A9#9700FB00FF017904
(1572903258.396656) can0 0A8#2200ABE9FCFFFEFF
(1572903258.396900) can0 0A7#19000000FFFFF7FF
(1572903258.397143) can0 0A6#0000FCFFFFFF0000
(1572903258.397381) can0 0A5#8D0600000000B0FE
(1572903258.397631) can0 0A4#0000000000000000
(1572903258.397857) can0 0A3#EDBDD71EEEB9071F
(1572903258.398089) can0 0A2#F0D8F0D865050000
(1572903258.398319) can0 0A1#C00049083908F0D8
(1572903258.398557) can0 0A0#CA00CC00CB00C000
(1572903258.398806) can0 0C0#0000000000000000
(1572903258.404200) can0 0AD#FFFF000000000000
(1572903258.404448) can0 0AC#000001000C010000
(1572903258.404698) can0 0AB#0000000000000000
(1572903258.404942) can0 0AA#0400090000000000
(1572903258.405184) can0 0A8#2200ABE9FBFF0300
(1572903258.405430) can0 0A7#18000000FFFFF7FF
(1572903258.405676) can0 0A6#FBFFFFFF01000000
(1572903258.405918) can0 0A5#8C06000000000BFF
(1572903258.406167) can0 0A4#0000000000000000
(1572903258.406393) can0 0A3#EDBDD71EEEB9071F
(1572903258.408335) can0 0C0#0000000000000000
(1572903258.409121) can0 036#00
(1572903258.409775) can0 032#00002D011C0100
(1572903258.413197) can0 0AD#FFFF000000000000
(1572903258.413443) can0 0AC#000001000F010000
(1572903258.413693) can0 0AB#0000000000000000
(1572903258.413937) can0 0AA#0400090000000000
(1572903258.414177) can0 0A8#2200ABE904000200
(1572903258.414422) can0 0A7#1C000000FFFFF7FF
(1572903258.414662) can0 0A6#FEFF0500FCFF0000
(1572903258.414904) can0 0A5#8C06000000005DFF
(1572903258.415152) can0 0A4#0000000000000000
(1572903258.415380) can0 0A3#EEBDD71EEEB9071F
(1572903258.418405) can0 0C0#0000000000000000
(1572903258.422281) can0 0AD#0000000000000000
(1572903258.422527) can0 0AC#0000000012010000
(1572903258.422777) can0 0AB#0000000000000000
(1572903258.423021) can0 0AA#0400090000000000
(1572903258.423260) can0 0A8#2200ABE9FEFF0000
(1572903258.423505) can0 0A7#18000000FFFFFCFF
(1572903258.423752) can0 0A6#FEFF0000FFFF0000
(1572903258.423992) can0 0A5#8C0600000000ABFF
(1572903258.424242) can0 0A4#0000000000000000
(1572903258.424470) can0 0A3#EEBDD71EEEB9071F
(1572903258.428458) can0 0C0#0000000000000000
(1572903258.431192) can0 0AD#0000000000000000
(1572903258.431438) can0 0AC#0000000015010000
(1572903258.431688) can0 0AB#0000000000000000
(1572903258.431932) can0 0AA#0400090000000000
(1572903258.432174) can0 0A8#2200ABE9F8FF0000
(1572903258.432416) can0 0A7#16000000F6FFFCFF
(1572903258.432658) can0 0A6#FEFFFAFFF8FF0000
(1572903258.432898) can0 0A5#8C0600000000EFFF
(1572903258.433148) can0 0A4#0000000000000000
(1572903258.433376) can0 0A3#EEBDD71EEEB9071F
(1572903258.438554) can0 0C0#0000000000000000
(1572903258.440190) can0 0AD#0100000000000000
(1572903258.440436) can0 0AC#0000FFFF18010000
(1572903258.440686) can0 0AB#0000000000000000
(1572903258.440930) can0 0AA#0400090000000000
(1572903258.441169) can0 0A8#2200ABE90200FDFF
(1572903258.441411) can0 0A7#16000000FDFFF5FF
(1572903258.441655) can0 0A6#0300000001000000
(1572903258.441895) can0 0A5#8B06000000002F00
(1572903258.442145) can0 0A4#0000000000000000
(1572903258.442373) can0 0A3#EEBDD71EEEBD071F
(1572903258.448598) can0 0C0#0000000000000000
(1572903258.449192) can0 0AD#FFFF000000000000
(1572903258.449438) can0 0AC#000001001B010000
(1572903258.449688) can0 0AB#0000000000000000
(1572903258.449932) can0 0AA#0400090000000000
(1572903258.450170) can0 0A8#2200ABE9F8FF0200
(1572903258.450410) can0 0A7#1A0000000200F5FF
(1572903258.450656) can0 0A6#FBFFFDFFFFFF0000
(1572903258.450894) can0 0A5#8C06000000007100
(1572903258.451144) can0 0A4#0000000000000000
(1572903258.451372) can0 0A3#EEBDD71EEEBD071F
(1572903258.458190) can0 0AD#FFFF000000000000
(1572903258.458438) can0 0AC#000001001E010000
(1572903258.458688) can0 0AB#0000000000000000
(1572903258.458932) can0 0AA#0400090000000000
(1572903258.459174) can0 0A8#2200ABE900000200
(1572903258.459416) can0 0A7#19000000FFFFF5FF
(1572903258.459662) can0 0A6#FEFF020001000000
(1572903258.459903) can0 0A5#8C0600000000AD00
(1572903258.460153) can0 0A4#0000000000000000
(1572903258.460377) can0 0A3#EEBDD71EEEB9F71E
(1572903258.460627) can0 0C0#0000000000000000
(1572903258.467187) can0 0AD#0000000000000000
(1572903258.467435) can0 0AC#0000000021010000
(1572903258.467684) can0 0AB#0000000000000000
(1572903258.467928) can0 0AA#0400090000000000
(1572903258.468170) can0 0A8#2200ABE9F8FF0000
(1572903258.468414) can0 0A7#16000000F8FFF7FF
(1572903258.468654) can0 0A6#FEFFFAFFFCFF0000
(1572903258.468892) can0 0A5#8C0600000000E500
(1572903258.469142) can0 0A4#0000000000000000
(1572903258.469367) can0 0A3#EEBDD71EEFBDF71E
(1572903258.469617) can0 0C0#0000000000000000
(1572903258.476187) can0 0AD#0000000000000000
(1572903258.476433) can0 0AC#0000000024010000
(1572903258.476683) can0 0AB#0000000000000000
(1572903258.476927) can0 0AA#0400090000000000
(1572903258.477168) can0 0A8#2200ABE901000100
(1572903258.477410) can0 0A7#19000000FFFFF9FF
(1572903258.477652) can0 0A6#FEFF0200FCFF0000
(1572903258.477892) can0 0A5#8C06000000001A01
(1572903258.478010) can0 036#00
(1572903258.478260) can0 0A4#0000000000000000
(1572903258.478487) can0 0A3#EDBDD71EEFBD071F
(1572903258.478709) can0 032#00002D011C0100
(1572903258.478958) can0 0C0#0000000000000000
(1572903258.485276) can0 0AD#FFFF000000000000
(1572903258.485522) can0 0AC#0000000027010000
(1572903258.485772) can0 0AB#0000000000000000
(1572903258.486016) can0 0AA#0400090000000000
(1572903258.486256) can0 0A8#2200ABE9FEFF0000
(1572903258.486501) can0 0A7#18000000FFFFFEFF
(1572903258.486749) can0 0A6#0000FDFFFFFF0000
(1572903258.486987) can0 0A5#8C06000000004D01
(1572903258.487237) can0 0A4#0000000000000000
(1572903258.487467) can0 0A3#EDB9D71EEFB9071F
(1572903258.488839) can0 0C0#0000000000000000
(1572903258.494187) can0 0AD#FFFF000000000000
(1572903258.494425) can0 0AE#1000B41911051820
(1572903258.494671) can0 0AC#000000002A010000
(1572903258.494921) can0 0AB#0000000000000000
(1572903258.495165) can0 0AA#0400090000000000
(1572903258.495400) can0 0A9#9700FB00FF017D04
(1572903258.495640) can0 0A8#2200ABE903000000
(1572903258.495882) can0 0A7#18000000FAFFFCFF
(1572903258.496130) can0 0A6#00000200FFFF0000
(1572903258.496368) can0 0A5#8C06000000008401
(1572903258.496618) can0 0A4#0000000000000000
(1572903258.496848) can0 0A3#EDB9D71EEFB9071F
(1572903258.497080) can0 0A2#F0D8F0D865050000
(1572903258.497312) can0 0A1#C20049083908F0D8
(1572903258.497548) can0 0A0#C900CC00CC00BA00
(1572903258.498915) can0 0C0#0000000000000000
(1572903258.503183) can0 0AD#FFFF000000000000
(1572903258.503429) can0 0AC#000000002D010000
(1572903258.503679) can0 0AB#0000000000000000
(1572903258.503923) can0 0AA#0400090000000000
(1572903258.504167) can0 0A8#2200ABE90000FFFF
(1572903258.504413) can0 0A7#1A0000000400F9FF
(1572903258.504663) can0 0A6#0000000004000000
(1572903258.504901) can0 0A5#8C0600000000AA01
(1572903258.505151) can0 0A4#0000000000000000
(1572903258.505377) can0 0A3#EDBDD71EEEBDF71E
(1572903258.508970) can0 0C0#0000000000000000
(1572903258.512178) can0 0AD#0000000000000000
(1572903258.512422) can0 0AC#0000FDFF30010000
(1572903258.512672) can0 0AB#0000000000000000
(1572903258.512916) can0 0AA#0400090000000000
(1572903258.513158) can0 0A8#2200ABE9FFFFF8FF
(1572903258.513402) can0 0A7#1A000000FFFFF9FF
(1572903258.513644) can0 0A6#0600FAFFFFFF0000
(1572903258.513882) can0 0A5#8C0600000000D101
(1572903258.514132) can0 0A4#0000000000000000
(1572903258.514358) can0 0A3#EEB9D71EEEBDF71E
(1572903258.519024) can0 0C0#0000000000000000
(1572903258.521178) can0 0AD#0000000000000000
(1572903258.521426) can0 0AC#0000000033010000
(1572903258.521676) can0 0AB#0000000000000000
(1572903258.521920) can0 0AA#0400090000000000
(1572903258.522162) can0 0A8#2200ABE9F8FF0000
(1572903258.522411) can0 0A7#18000000FFFFF9FF
(1572903258.522651) can0 0A6#FEFFFAFFF9FF0000
(1572903258.522895) can0 0A5#8C0600000000F801
(1572903258.523145) can0 0A4#0000000000000000
(1572903258.523371) can0 0A3#EEB9D71EEEB9071F
(1572903258.529112) can0 0C0#0000000000000000
(1572903258.530178) can0 0AD#0100000000000000
(1572903258.530424) can0 0AC#0000000036010000
(1572903258.530674) can0 0AB#0000000000000000
(1572903258.530918) can0 0AA#0400090000000000
(1572903258.531162) can0 0A8#2200ABE90000FFFF
(1572903258.531406) can0 0A7#1A000000F8FFFCFF
(1572903258.531658) can0 0A6#00000000FFFF0000
(1572903258.531898) can0 0A5#8C06000000002402
(1572903258.532147) can0 0A4#0000000000000000
(1572903258.532375) can0 0A3#EEBDD71EEEB9071F
(1572903258.539159) can0 0C0#0000000000000000
(1572903258.539276) can0 036#00
(1572903258.539526) can0 0AD#FFFF000000000000
(1572903258.539772) can0 0AC#0000000039010000
(1572903258.539994) can0 032#00002A011C0100
(1572903258.540244) can0 0AB#0000000000000000
(1572903258.540487) can0 0AA#0400090000000000
(1572903258.540727) can0 0A8#2200ABE903000000
(1572903258.540971) can0 0A7#19000000FFFFF7FF
(1572903258.541215) can0 0A6#00000200FCFF0000
(1572903258.541453) can0 0A5#8C06000000004902
(1572903258.541703) can0 0A4#0000000000000000
(1572903258.541931) can0 0A3#EEBDD71EEEB9071F
(1572903258.548267) can0 0AD#FFFF000000000000
(1572903258.548513) can0 0AC#000000003C010000
(1572903258.548763) can0 0AB#0000000000000000
(1572903258.549007) can0 0AA#0400090000000000
(1572903258.549249) can0 0A8#2200ABE9FFFF0000
(1572903258.549494) can0 0A7#190000000000F7FF
(1572903258.549738) can0 0A6#FEFF000001000000
(1572903258.549976) can0 0A5#8C06000000006D02
(1572903258.550226) can0 0A4#0000000000000000
(1572903258.550454) can0 0A3#EEBDD71EEEB9071F
(1572903258.550703) can0 0C0#0000000000000000
(1572903258.557179) can0 0AD#FFFF000000000000
(1572903258.557427) can0 0AC#0000FFFF3F010000
(1572903258.557677) can0 0AB#0000000000000000
(1572903258.557921) can0 0AA#0400090000000000
(1572903258.558163) can0 0A8#2200ABE9FEFFFEFF
(1572903258.558405) can0 0A7#19000000FAFFFCFF
(1572903258.558648) can0 0A6#FEFF000001000000
(1572903258.558886) can0 0A5#8C06000000009402
(1572903258.559136) can0 0A4#0000000000000000
(1572903258.559360) can0 0A3#EEBDD71EEEB9F71E
(1572903258.559613) can0 0C0#0000000000000000
(1572903258.566177) can0 0AD#0000000000000000
(1572903258.566423) can0 0AC#0000000042010000
(1572903258.566673) can0 0AB#0000000000000000
(1572903258.566917) can0 0AA#0400090000000000
(1572903258.567159) can0 0A8#2200ABE9FBFF0000
(1572903258.567401) can0 0A7#19000000FFFFF9FF
(1572903258.567645) can0 0A6#03000200FFFF0000
(1572903258.567883) can0 0A5#8C0600000000B802
(1572903258.568133) can0 0A4#0000000000000000
(1572903258.568359) can0 0A3#EEB9D71EEEBDF71E
(1572903258.569292) can0 0C0#0000000000000000
(1572903258.575178) can0 0AD#0000000000000000
(1572903258.575424) can0 0AC#0000FFFF45010000
(1572903258.575674) can0 0AB#0000000000000000
(1572903258.575918) can0 0AA#0400090000000000
(1572903258.576156) can0 0A8#2200ABE90200FCFF
(1572903258.576400) can0 0A7#180000000000F5FF
(1572903258.576648) can0 0A6#0300000002000000
(1572903258.576886) can0 0A5#8D0600000000D602
(1572903258.577136) can0 0A4#0000000000000000
(1572903258.577364) can0 0A3#EEBDD71EEEBD071F
(1572903258.579380) can0 0C0#0000000000000000
(1572903258.584180) can0 0AD#FFFF000000000000
(1572903258.584427) can0 0AC#0000000048010000
(1572903258.584677) can0 0AB#0000000000000000
(1572903258.584921) can0 0AA#0400090000000000
(1572903258.585163) can0 0A8#2200ABE9FFFF0000
(1572903258.585411) can0 0A7#1B000000FFFFFCFF
(1572903258.585655) can0 0A6#FEFF0000FDFF0000
(1572903258.585893) can0 0A5#8C0600000000ED02
(1572903258.586143) can0 0A4#0000000000000000
(1572903258.586371) can0 0A3#EEBDD71EEEB9071F
(1572903258.589432) can0 0C0#0000000000000000
(1572903258.593178) can0 0AD#0000000000000000
(1572903258.593416) can0 0AE#1000B41911051820
(1572903258.593662) can0 0AC#000000004B010000
(1572903258.593912) can0 0AB#0000000000000000
(1572903258.594156) can0 0AA#0400090000000000
(1572903258.594391) can0 0A9#9700FB00FF017A04
(1572903258.594633) can0 0A8#2200ABE9FBFF0000
(1572903258.594875) can0 0A7#19000000FFFFF9FF
(1572903258.595115) can0 0A6#FEFFFDFFFAFF0000
(1572903258.595361) can0 0A5#8C06000000000003
(1572903258.595611) can0 0A4#0000000000000000
(1572903258.595837) can0 0A3#EDBDD71EEEB9071F
(1572903258.596069) can0 0A2#F0D8F0D865050000
(1572903258.596298) can0 0A1#C00049083908F0D8
(1572903258.596534) can0 0A0#CA00CC00CB00BF00
(1572903258.599499) can0 0C0#0000000000000000
(1572903258.602177) can0 0AD#FFFF000000000000
(1572903258.602423) can0 0AC#000000004E010000
(1572903258.602673) can0 0AB#0000000000000000
(1572903258.602917) can0 0AA#0400090000000000
(1572903258.603157) can0 0A8#2200ABE9FEFF0000
(1572903258.603403) can0 0A7#180000000000F9FF
(1572903258.603649) can0 0A6#FEFF000000000000
(1572903258.603890) can0 0A5#8D06000000001C03
(1572903258.604140) can0 0A4#0000000000000000
(1572903258.604366) can0 0A3#EDBDD71EEEB9071F
(1572903258.607778) can0 036#00
(1572903258.608434) can0 032#00002A011C0100
(1572903258.609554) can0 0C0#0000000000000000
(1572903258.610365) can0 067#200000004D951E0D
(1572903258.611267) can0 0AD#FFFF000000000000
(1572903258.611513) can0 0AC#0000000051010000
(1572903258.611763) can0 0AB#0000000000000000
(1572903258.612007) can0 0AA#0400090000000000
(1572903258.612247) can0 0A8#2200ABE9FEFF0000
(1572903258.612491) can0 0A7#190000000000FCFF
(1572903258.612733) can0 0A6#FEFF0000FAFF0000
(1572903258.612975) can0 0A5#8D06000000003603
(1572903258.613225) can0 0A4#0000000000000000
(1572903258.613453) can0 0A3#EEBDD71EEEB9071F
(1572903258.619628) can0 0C0#0000000000000000
(1572903258.620180) can0 0AD#FFFF000000000000
(1572903258.620426) can0 0AC#0000020054010000
(1572903258.620676) can0 0AB#0000000000000000
(1572903258.620920) can0 0AA#0400090000000000
(1572903258.621162) can0 0A8#2200ABE900000400
(1572903258.621408) can0 0A7#16000000FDFFFCFF
(1572903258.621656) can0 0A6#FCFF020002000000
(1572903258.621896) can0 0A5#8D06000000004D03
(1572903258.622146) can0 0A4#0000000000000000
(1572903258.622372) can0 0A3#EDBDD71EEEB9071F
(1572903258.629175) can0 0AD#0000000000000000
(1572903258.629421) can0 0AC#0000000057010000
(1572903258.629671) can0 0AB#0000000000000000
(1572903258.629917) can0 0AA#0400090000000000
(1572903258.630157) can0 0A8#2200ABE9FFFF0000
(1572903258.630401) can0 0A7#1A0000000000F7FF
(1572903258.630647) can0 0A6#FEFF000000000000
(1572903258.630885) can0 0A5#8C06000000006703
(1572903258.631135) can0 0A4#0000000000000000
(1572903258.631361) can0 0A3#EDBDD71EEEBD071F
(1572903258.631610) can0 0C0#0000000000000000
(1572903258.638180) can0 0AD#FFFF000000000000
(1572903258.638426) can0 0AC#000000005A010000
(1572903258.638676) can0 0AB#0000000000000000
(1572903258.638920) can0 0AA#0400090000000000
(1572903258.639162) can0 0A8#2200ABE9FFFF0000
(1572903258.639410) can0 0A7#1A000000FFFFF7FF
(1572903258.639656) can0 0A6#FFFF0000FDFF0000
(1572903258.639894) can0 0A5#8C06000000007903
(1572903258.640144) can0 0A4#0000000000000000
(1572903258.640371) can0 0A3#EEBDD71EEEBD071F
(1572903258.640621) can0 0C0#0000000000000000
(1572903258.647177) can0 0AD#0100000000000000
(1572903258.647423) can0 0AC#0000FFFF5D010000
(1572903258.647673) can0 0AB#0000000000000000
(1572903258.647918) can0 0AA#0400090000000000
(1572903258.648159) can0 0A8#2200ABE9FEFFFEFF
(1572903258.648405) can0 0A7#18000000FFFFF7FF
(1572903258.648649) can0 0A6#0100FEFF00000000
(1572903258.648886) can0 0A5#8C06000000008E03
(1572903258.649136) can0 0A4#0000000000000000
(1572903258.649366) can0 0A3#EEB9D71EEFBD071F
(1572903258.650110) can0 0C0#0000000000000000
(1572903258.656180) can0 0AD#FFFF000000000000
(1572903258.656426) can0 0AC#0000010060010000
(1572903258.656676) can0 0AB#0000000000000000
(1572903258.656920) can0 0AA#0400090000000000
(1572903258.657160) can0 0A8#2200ABE9FAFF0200
(1572903258.657406) can0 0A7#16000000FDFFFEFF
(1572903258.657648) can0 0A6#FCFFFEFFFDFF0000
(1572903258.657887) can0 0A5#8D0600000000A303
(1572903258.658137) can0 0A4#0000000000000000
(1572903258.658365) can0 0A3#EEBDD71EEFBD071F
(1572903258.659857) can0 0C0#0000000000000000
(1572903258.665239) can0 0AD#0100000000000000
(1572903258.665481) can0 0AC#0000FEFF63010000
(1572903258.665731) can0 0AB#0000000000000000
(1572903258.665975) can0 0AA#0400090000000000
(1572903258.666213) can0 0A8#2200ABE90300FCFF
(1572903258.666458) can0 0A7#1A0000000000F9FF
(1572903258.666704) can0 0A6#0400000002000000
(1572903258.666942) can0 0A5#8C0600000000B503
(1572903258.667192) can0 0A4#0000000000000000
(1572903258.667420) can0 0A3#EEBDD71EEEB9071F
(1572903258.669406) can0 036#00
(1572903258.669888) can0 0C0#0000000000000000
(1572903258.670417) can0 032#00002D012D0100
(1572903258.674327) can0 0AD#0100000000000000
(1572903258.674574) can0 0AC#0000020066010000
(1572903258.674824) can0 0AB#0000000000000000
(1572903258.675068) can0 0AA#0400090000000000
(1572903258.675308) can0 0A8#2200ABE900000300
(1572903258.675552) can0 0A7#150000000000FCFF
(1572903258.675802) can0 0A6#0100000002000000
(1572903258.676044) can0 0A5#8C0600000000C103
(1572903258.676294) can0 0A4#0000000000000000
(1572903258.676520) can0 0A3#EDBDD71EEEB9071F
(1572903258.679963) can0 0C0#0000000000000000
(1572903258.683237) can0 0AD#0100000000000000
(1572903258.683483) can0 0AC#0000010069010000
(1572903258.683733) can0 0AB#0000000000000000
(1572903258.683977) can0 0AA#0400090000000000
(1572903258.684215) can0 0A8#2200ABE9FDFF0300
(1572903258.684461) can0 0A7#1A000000FAFFF9FF
(1572903258.684705) can0 0A6#FCFF0000FDFF0000
(1572903258.684943) can0 0A5#8C0600000000CF03
(1572903258.685193) can0 0A4#0000000000000000
(1572903258.685422) can0 0A3#EEBDD71EEFB9071F
(1572903258.690005) can0 0C0#0000000000000000
(1572903258.692237) can0 0AD#0000000000000000
(1572903258.692475) can0 0AE#1000B41911051820
(1572903258.692721) can0 0AC#0000FFFF6C010000
(1572903258.692969) can0 0AB#0000000000000000
(1572903258.693213) can0 0AA#0400090000000000
(1572903258.693453) can0 0A9#9700FB00FF018204
(1572903258.693691) can0 0A8#2200ABE90300FCFF
(1572903258.693937) can0 0A7#16000000FDFFFCFF
(1572903258.694183) can0 0A6#0400000002000000
(1572903258.694426) can0 0A5#8C0600000000E003
(1572903258.694676) can0 0A4#0000000000000000
(1572903258.694904) can0 0A3#EEBDD71EEEB9071F
(1572903258.695136) can0 0A2#F0D8F0D865050000
(1572903258.695366) can0 0A1#C00049083908F0D8
(1572903258.695604) can0 0A0#CA00CC00CC00BD00
(1572903258.700066) can0 0C0#0000000000000000
(1572903258.701234) can0 0AD#0000000000000000
(1572903258.701482) can0 0AC#000000006F010000
(1572903258.701732) can0 0AB#0000000000000000
(1572903258.701976) can0 0AA#0400090000000000
(1572903258.702218) can0 0A8#2200ABE9FFFF0000
(1572903258.702460) can0 0A7#15000000FDFFFEFF
(1572903258.702704) can0 0A6#FFFF0000FEFF0000
(1572903258.702944) can0 0A5#8C0600000000E803
(1572903258.703194) can0 0A4#0000000000000000
(1572903258.703421) can0 0A3#EDBDD71EEEB9071F
(1572903258.710174) can0 0C0#0000000000000000
(1572903258.710424) can0 0AD#FFFF000000000000
(1572903258.710674) can0 0AC#0000000072010000
(1572903258.710924) can0 0AB#0000000000000000
(1572903258.711168) can0 0AA#0400090000000000
(1572903258.711410) can0 0A8#2200ABE9F8FF0000
(1572903258.711651) can0 0A7#16000000FDFFF9FF
(1572903258.711897) can0 0A6#FFFFFBFF00000000
(1572903258.712137) can0 0A5#8C0600000000F603
(1572903258.712387) can0 0A4#0000000000000000
(1572903258.712613) can0 0A3#EDBDD71EEEBD071F
(1572903258.719235) can0 0AD#FFFF000000000000
(1572903258.719481) can0 0AC#0000000075010000
(1572903258.719731) can0 0AB#0000000000000000
(1572903258.719975) can0 0AA#0400090000000000
(1572903258.720217) can0 0A8#2200ABE904000000
(1572903258.720462) can0 0A7#18000000FFFFF7FF
(1572903258.720708) can0 0A6#0100020000000000
(1572903258.720952) can0 0A5#8B06000000000104
(1572903258.721202) can0 0A4#0000000000000000
(1572903258.721428) can0 0A3#EDBDD71EEEBD071F
(1572903258.721677) can0 0C0#0000000000000000
(1572903258.728233) can0 0AD#FFFF000000000000
(1572903258.728481) can0 0AC#0000FFFF78010000
(1572903258.728731) can0 0AB#0000000000000000
(1572903258.728975) can0 0AA#0400090000000000
(1572903258.729215) can0 0A8#2200ABE90100FFFF
(1572903258.729459) can0 0A7#18000000FFFFFCFF
(1572903258.729709) can0 0A6#0100000002000000
(1572903258.729951) can0 0A5#8C06000000000804
(1572903258.730201) can0 0A4#0000000000000000
(1572903258.730425) can0 0A3#EDBDD71EEEB9F71E
(1572903258.730674) can0 0C0#0000000000000000
(1572903258.737318) can0 0AD#FFFF000000000000
(1572903258.737564) can0 0AC#000000007B010000
(1572903258.737814) can0 0AB#0000000000000000
(1572903258.738058) can0 0AA#0400090000000000
(1572903258.738176) can0 036#00
(1572903258.738417) can0 0A8#2200ABE9FFFF0000
(1572903258.738657) can0 0A7#19000000FDFFF5FF
(1572903258.738883) can0 032#00002A011F0100
(1572903258.739131) can0 0A6#01000000FBFF0000
(1572903258.739370) can0 0A5#8C06000000001104
(1572903258.739620) can0 0A4#0000000000000000
(1572903258.739844) can0 0A3#EDBDD71EEEB9F71E
(1572903258.740618) can0 0C0#0000000000000000
(1572903258.746230) can0 0AD#FFFF000000000000
(1572903258.746478) can0 0AC#000000007E010000
(1572903258.746728) can0 0AB#0000000000000000
(1572903258.746972) can0 0AA#0400090000000000
(1572903258.747216) can0 0A8#2200ABE90000FFFF
(1572903258.747458) can0 0A7#14000000FAFFF5FF
(1572903258.747706) can0 0A6#0100000000000000
(1572903258.747946) can0 0A5#8C06000000001D04
(1572903258.748196) can0 0A4#0000000000000000
(1572903258.748422) can0 0A3#EDBDD71EEEB9071F
(1572903258.750368) can0 0C0#0000000000000000
(1572903258.755226) can0 0AD#0000000000000000
(1572903258.755474) can0 0AC#0000000081010000
(1572903258.755724) can0 0AB#0000000000000000
(1572903258.755967) can0 0AA#0400090000000000
(1572903258.756209) can0 0A8#2200ABE9FCFF0000
(1572903258.756453) can0 0A7#190000000600FCFF
(1572903258.756693) can0 0A6#FFFFFEFF0B000000
(1572903258.756933) can0 0A5#8C06000000002A04
(1572903258.757183) can0 0A4#0000000000000000
(1572903258.757411) can0 0A3#EEBDD71EEEBD071F
(1572903258.760457) can0 0C0#0000000000000000
(1572903258.764225) can0 0AD#0000000000000000
(1572903258.764469) can0 0AC#0000010084010000
(1572903258.764719) can0 0AB#0000000000000000
(1572903258.764963) can0 0AA#0400090000000000
(1572903258.765203) can0 0A8#2200ABE9FDFF0200
(1572903258.765445) can0 0A7#19000000FDFFF9FF
(1572903258.765689) can0 0A6#FCFF000000000000
(1572903258.765929) can0 0A5#8C06000000003804
(1572903258.766179) can0 0A4#0000000000000000
(1572903258.766405) can0 0A3#EDBDD71EEEBD071F
(1572903258.770489) can0 0C0#0000000000000000
(1572903258.773223) can0 0AD#0100000000000000
(1572903258.773469) can0 0AC#0000FFFF87010000
(1572903258.773719) can0 0AB#0000000000000000
(1572903258.773963) can0 0AA#0400090000000000
(1572903258.774205) can0 0A8#2200ABE9FEFFFEFF
(1572903258.774451) can0 0A7#16000000FDFFFCFF
(1572903258.774697) can0 0A6#0100FDFF00000000
(1572903258.774938) can0 0A5#8C06000000004804
(1572903258.775188) can0 0A4#0000000000000000
(1572903258.775414) can0 0A3#EDB9D71EEEB9071F
(1572903258.780527) can0 0C0#0000000000000000
(1572903258.782226) can0 0AD#FFFF000000000000
(1572903258.782471) can0 0AC#000000008A010000
(1572903258.782720) can0 0AB#0000000000000000
(1572903258.782964) can0 0AA#0400090000000000
(1572903258.783204) can0 0A8#2200ABE9FDFF0200
(1572903258.783448) can0 0A7#160000000200F9FF
(1572903258.783692) can0 0A6#FCFF000002000000
(1572903258.783930) can0 0A5#8C06000000004E04
(1572903258.784180) can0 0A4#0000000000000000
(1572903258.784405) can0 0A3#EEB9D71EEEB9071F
(1572903258.790563) can0 0C0#0000000000000000
(1572903258.791221) can0 0AD#0100000000000000
(1572903258.791459) can0 0AE#1000B41911051820
(1572903258.791705) can0 0AC#000000008D010000
(1572903258.791955) can0 0AB#0000000000000000
(1572903258.792199) can0 0AA#0400090000000000
(1572903258.792434) can0 0A9#9700FB00FF017E04
(1572903258.792676) can0 0A8#2200ABE9FBFF0000
(1572903258.792918) can0 0A7#18000000FAFFF5FF
(1572903258.793162) can0 0A6#FFFFFDFFFDFF0000
(1572903258.793404) can0 0A5#8C06000000005804
(1572903258.793654) can0 0A4#0000000000000000
(1572903258.793882) can0 0A3#EEBDD71EEEBD071F
(1572903258.794114) can0 0A2#F0D8F0D865050000
(1572903258.794344) can0 0A1#BF0049083908F0D8
(1572903258.794583) can0 0A0#C900CC00CC00BD00
(1572903258.799497) can0 036#00
(1572903258.800151) can0 032#00002A011C0100
(1572903258.800399) can0 0AD#0000000000000000
(1572903258.800646) can0 0AC#0000000090010000
(1572903258.800896) can0 0AB#0000000000000000
(1572903258.801140) can0 0AA#0400090000000000
(1572903258.801380) can0 0A8#2200ABE90300FFFF
(1572903258.801622) can0 0A7#19000000FDFFFCFF
(1572903258.801868) can0 0A6#0100020000000000
(1572903258.802108) can0 0A5#8B06000000005D04
(1572903258.802357) can0 0A4#0000000000000000
(1572903258.802583) can0 0A3#EDBDD71EEEBD071F
(1572903258.802833) can0 0C0#0000000000000000
(1572903258.809217) can0 0AD#0000000000000000
(1572903258.809463) can0 0AC#0000000093010000
(1572903258.809713) can0 0AB#0000000000000000
(1572903258.809956) can0 0AA#0400090000000000
(1572903258.810198) can0 0A8#2200ABE9FBFF0000
(1572903258.810444) can0 0A7#1A0000000000F9FF
(1572903258.810688) can0 0A6#FFFFFDFF02000000
(1572903258.810928) can0 0A5#8C06000000006004
(1572903258.811178) can0 0A4#0000000000000000
(1572903258.811404) can0 0A3#EDBDD71EEEBD071F
(1572903258.811653) can0 0C0#0000000000000000
(1572903258.818217) can0 0AD#FFFF000000000000
(1572903258.818461) can0 0AC#0000FFFF96010000
(1572903258.818711) can0 0AB#0000000000000000
(1572903258.818955) can0 0AA#0400090000000000
(1572903258.819197) can0 0A8#2200ABE9FBFFFDFF
(1572903258.819441) can0 0A7#180000000200FCFF
(1572903258.819685) can0 0A6#0100FAFF02000000
(1572903258.819922) can0 0A5#8C06000000006A04
(1572903258.820172) can0 0A4#0000000000000000
(1572903258.820400) can0 0A3#EEB9D71EEEBD071F
(1572903258.820767) can0 0C0#0000000000000000
(1572903258.827215) can0 0AD#0000000000000000
(1572903258.827461) can0 0AC#0000000099010000
(1572903258.827711) can0 0AB#0000000000000000
(1572903258.827955) can0 0AA#0400090000000000
(1572903258.828195) can0 0A8#2200ABE90000FEFF
(1572903258.828441) can0 0A7#180000000000F7FF
(1572903258.828691) can0 0A6#0100000002000000
(1572903258.828929) can0 0A5#8C06000000006904
(1572903258.829179) can0 0A4#0000000000000000
(1572903258.829406) can0 0A3#EDB9D71EEFBD071F
(1572903258.830844) can0 0C0#0000000000000000
(1572903258.836216) can0 0AD#0000000000000000
(1572903258.836462) can0 0AC#000000009C010000
(1572903258.836712) can0 0AB#0000000000000000
(1572903258.836956) can0 0AA#0400090000000000
(1572903258.837194) can0 0A8#2200ABE9F6FF0100
(1572903258.837438) can0 0A7#190000000200F9FF
(1572903258.837680) can0 0A6#FCFFFAFF00000000
(1572903258.837917) can0 0A5#8C06000000006B04
(1572903258.838167) can0 0A4#0000000000000000
(1572903258.838393) can0 0A3#EDBDD71EEEB9071F
(1572903258.840888) can0 0C0#0000000000000000
(1572903258.845212) can0 0AD#0000000000000000
(1572903258.845460) can0 0AC#000000009F010000
(1572903258.845709) can0 0AB#0000000000000000
(1572903258.845953) can0 0AA#0400090000000000
(1572903258.846195) can0 0A8#2200ABE9FFFF0000
(1572903258.846439) can0 0A7#1B000000FDFFF0FF
(1572903258.846683) can0 0A6#FFFF0000FAFF0000
(1572903258.846921) can0 0A5#8B06000000006B04
(1572903258.847171) can0 0A4#0000000000000000
(1572903258.847399) can0 0A3#EEBDD71EEEB9071F
(1572903258.850938) can0 0C0#0000000000000000
(1572903258.854212) can0 0AD#FFFF000000000000
(1572903258.854460) can0 0AC#00000000A2010000
(1572903258.854710) can0 0AB#0000000000000000
(1572903258.854954) can0 0AA#0400090000000000
(1572903258.855196) can0 0A8#2200ABE9FFFF0000
(1572903258.855440) can0 0A7#16000000FFFFFCFF
(1572903258.855686) can0 0A6#FFFF000000000000
(1572903258.855926) can0 0A5#8C06000000006C04
(1572903258.856176) can0 0A4#0000000000000000
(1572903258.856403) can0 0A3#EEBDD71EEEBD071F
(1572903258.861037) can0 0C0#0000000000000000
(1572903258.863297) can0 0AD#0000000000000000
(1572903258.863543) can0 0AC#00000000A5010000
(1572903258.863793) can0 0AB#0000000000000000
(1572903258.864037) can0 0AA#0400090000000000
(1572903258.864279) can0 0A8#2200ABE9F8FF0000
(1572903258.864521) can0 0A7#19000000FFFFFEFF
(1572903258.864767) can0 0A6#FFFF000000000000
(1572903258.865007) can0 0A5#8B06000000007404
(1572903258.865257) can0 0A4#0000000000000000
(1572903258.865484) can0 0A3#EEB9D71EEEBD071F
(1572903258.868011) can0 036#00
(1572903258.868667) can0 032#00002D011C0100
(1572903258.871097) can0 0C0#0000000000000000
(1572903258.872211) can0 0AD#FFFF000000000000
(1572903258.872457) can0 0AC#0000FFFFA8010000
(1572903258.872707) can0 0AB#0000000000000000
(1572903258.872951) can0 0AA#0400090000000000
(1572903258.873189) can0 0A8#2200ABE90600FDFF
(1572903258.873435) can0 0A7#16000000FDFFFCFF
(1572903258.873682) can0 0A6#0400020000000000
(1572903258.873920) can0 0A5#8C06000000007904
(1572903258.874170) can0 0A4#0000000000000000
(1572903258.874396) can0 0A3#EEB9D71EEEB9071F
(1572903258.881150) can0 0C0#0000000000000000
(1572903258.881398) can0 0AD#0000000000000000
(1572903258.881644) can0 0AC#00000000AB010000
(1572903258.881894) can0 0AB#0000000000000000
(1572903258.882138) can0 0AA#0400090000000000
(1572903258.882382) can0 0A8#2200ABE90400FFFF
(1572903258.882624) can0 0A7#190000000200FCFF
(1572903258.882868) can0 0A6#0100020005000000
(1572903258.883107) can0 0A5#8B06000000008004
(1572903258.883357) can0 0A4#0000000000000000
(1572903258.883583) can0 0A3#EDBDD71EEEB9071F
(1572903258.890209) can0 0AD#FFFF000000000000
(1572903258.890447) can0 0AE#1000B41911051820
(1572903258.890695) can0 0AC#00000000AE010000
(1572903258.890945) can0 0AB#0000000000000000
(1572903258.891189) can0 0AA#0400090000000000
(1572903258.891425) can0 0A9#9700FB00FF017E04
(1572903258.891668) can0 0A8#2200ABE90400FFFF
(1572903258.891912) can0 0A7#18000000FDFFF9FF
(1572903258.892158) can0 0A6#0100020000000000
(1572903258.892398) can0 0A5#8C06000000007D04
(1572903258.892648) can0 0A4#0000000000000000
(1572903258.892874) can0 0A3#EDBDD71EEEB9071F
(1572903258.893106) can0 0A2#F0D8F0D865050000
(1572903258.893337) can0 0A1#C20049083908F0D8
(1572903258.893575) can0 0A0#C900CC00CC00BF00
(1572903258.893825) can0 0C0#0000000000000000
(1572903258.899205) can0 0AD#0100000000000000
(1572903258.899451) can0 0AC#00000000B1010000
(1572903258.899701) can0 0AB#0000000000000000
(1572903258.899945) can0 0AA#0400090000000000
(1572903258.900187) can0 0A8#2200ABE9FEFFFEFF
(1572903258.900428) can0 0A7#19000000FFFFF5FF
(1572903258.900674) can0 0A6#0100FDFF00000000
(1572903258.900914) can0 0A5#8C06000000008404
(1572903258.901164) can0 0A4#0000000000000000
(1572903258.901390) can0 0A3#EDBDD71EEEB9071F
(1572903258.901639) can0 0C0#0000000000000000
(1572903258.908205) can0 0AD#FFFF000000000000
(1572903258.908453) can0 0AC#00000000B4010000
(1572903258.908703) can0 0AB#0000000000000000
(1572903258.908947) can0 0AA#0400090000000000
(1572903258.909191) can0 0A8#2200ABE90400FFFF
(1572903258.909437) can0 0A7#180000000000F9FF
(1572903258.909683) can0 0A6#0100020000000000
(1572903258.909921) can0 0A5#8C06000000008C04
(1572903258.910171) can0 0A4#0000000000000000
(1572903258.910399) can0 0A3#EEBDD71EEEB9071F
(1572903258.911348) can0 0C0#0000000000000000
(1572903258.917202) can0 0AD#FFFF000000000000
(1572903258.917446) can0 0AC#00000200B7010000
(1572903258.917696) can0 0AB#0000000000000000
(1572903258.917940) can0 0AA#0400090000000000
(1572903258.918182) can0 0A8#2200ABE9F7FF0500
(1572903258.918430) can0 0A7#18000000EFFF0000
(1572903258.918678) can0 0A6#F9FFFDFFFDFF0000
(1572903258.918916) can0 0A5#8C06000000008904
(1572903258.919166) can0 0A4#0000000000000000
(1572903258.919393) can0 0A3#EEBDD71EEEB9071F
(1572903258.921391) can0 0C0#0000000000000000
(1572903258.926287) can0 0AD#0000000000000000
(1572903258.926535) can0 0AC#00000000BA010000
(1572903258.926783) can0 0AB#0000000000000000
(1572903258.927027) can0 0AA#0400090000000000
(1572903258.927269) can0 0A8#2200ABE9FCFF0000
(1572903258.927519) can0 0A7#1B0000000000F9FF
(1572903258.927765) can0 0A6#FFFF000000000000
(1572903258.928003) can0 0A5#8C06000000008904
(1572903258.928253) can0 0A4#0000000000000000
(1572903258.928481) can0 0A3#EEBDD71EEEB9071F
(1572903258.929673) can0 036#00
(1572903258.930327) can0 032#000033011C0100
(1572903258.931447) can0 0C0#0000000000000000
(1572903258.935199) can0 0AD#FFFF000000000000
(1572903258.935447) can0 0AC#00000000BD010000
(1572903258.935697) can0 0AB#0000000000000000
(1572903258.935941) can0 0AA#0400090000000000
(1572903258.936181) can0 0A8#2200ABE902000100
(1572903258.936427) can0 0A7#18000000FDFFFCFF
(1572903258.936673) can0 0A6#FFFF020002000000
(1572903258.936911) can0 0A5#8C06000000008C04
(1572903258.937160) can0 0A4#0000000000000000
(1572903258.937388) can0 0A3#EEBDD71EEEBD071F
(1572903258.941488) can0 0C0#0000000000000000
(1572903258.944198) can0 0AD#FFFF000000000000
(1572903258.944444) can0 0AC#00000100C0010000
(1572903258.944694) can0 0AB#0000000000000000
(1572903258.944938) can0 0AA#0400090000000000
(1572903258.945178) can0 0A8#2200ABE9FDFF0200
(1572903258.945424) can0 0A7#180000000000F7FF
(1572903258.945668) can0 0A6#FCFF000000000000
(1572903258.945908) can0 0A5#8C06000000008704
(1572903258.946158) can0 0A4#0000000000000000
(1572903258.946386) can0 0A3#EDB9D71EEEBD071F
(1572903258.951524) can0 0C0#0000000000000000
(1572903258.953198) can0 0AD#FFFF000000000000
(1572903258.953444) can0 0AC#0000FFFFC3010000
(1572903258.953694) can0 0AB#0000000000000000
(1572903258.953938) can0 0AA#0400090000000000
(1572903258.954180) can0 0A8#2200ABE9FEFFFEFF
(1572903258.954428) can0 0A7#1C000000FFFFF5FF
(1572903258.954674) can0 0A6#0100FDFF00000000
(1572903258.954916) can0 0A5#8C06000000008104
(1572903258.955166) can0 0A4#0000000000000000
(1572903258.955394) can0 0A3#EDB9D71EEEBD071F
(1572903258.961561) can0 0C0#0000000000000000
(1572903258.962195) can0 0AD#FFFF000000000000
(1572903258.962441) can0 0AC#00000000C6010000
(1572903258.962691) can0 0AB#0000000000000000
(1572903258.962937) can0 0AA#0400090000000000
(1572903258.963175) can0 0A8#2200ABE902000100
(1572903258.963421) can0 0A7#1B0000000000FCFF
(1572903258.963667) can0 0A6#FFFF020000000000
(1572903258.963909) can0 0A5#8C06000000008304
(1572903258.964159) can0 0A4#0000000000000000
(1572903258.964387) can0 0A3#EEBDD71EEEBD071F
(1572903258.971196) can0 0AD#FFFF000000000000
(1572903258.971442) can0 0AC#00000000C9010000
(1572903258.971692) can0 0AB#0000000000000000
(1572903258.971937) can0 0AA#0400090000000000
(1572903258.972176) can0 0A8#2200ABE90000FEFF
(1572903258.972418) can0 0A7#18000000FAFFF5FF
(1572903258.972662) can0 0A6#01000000FEFF0000
(1572903258.972902) can0 0A5#8C06000000008604
(1572903258.973152) can0 0A4#0000000000000000
(1572903258.973380) can0 0A3#EEBDD71EEEB9071F
(1572903258.973629) can0 0C0#0000000000000000
(1572903258.980191) can0 0AD#0100000000000000
(1572903258.980435) can0 0AC#00000100CC010000
(1572903258.980685) can0 0AB#0000000000000000
(1572903258.980929) can0 0AA#0400090000000000
(1572903258.981169) can0 0A8#2200ABE9FDFF0200
(1572903258.981415) can0 0A7#18000000FFFFF7FF
(1572903258.981659) can0 0A6#FCFF000002000000
(1572903258.981899) can0 0A5#8C06000000008704
(1572903258.982149) can0 0A4#0000000000000000
(1572903258.982377) can0 0A3#EEBDD71EEEBD071F
(1572903258.982626) can0 0C0#0000000000000000
(1572903258.989278) can0 0AD#0000000000000000
(1572903258.989516) can0 0AE#1000B41911051820
(1572903258.989762) can0 0AC#00000000CF010000
(1572903258.990012) can0 0AB#0000000000000000
(1572903258.990256) can0 0AA#0400090000000000
(1572903258.990492) can0 0A9#9700FB00FF018004
(1572903258.990732) can0 0A8#2200ABE90000FEFF
(1572903258.990974) can0 0A7#1A000000FAFFFCFF
(1572903258.991218) can0 0A6#F9FFFAFFF8FF0000
(1572903258.991460) can0 0A5#8C06000000008E04
(1572903258.991710) can0 0A4#0000000000000000
(1572903258.991935) can0 0A3#EDBDD71EEEBD071F
(1572903258.992167) can0 0A2#F0D8F0D865050000
(1572903258.992399) can0 0A1#C20049083908F0D8
(1572903258.992639) can0 0A0#C900CC00CB00BE00
(1572903258.992888) can0 0C0#0000000000000000
(1572903258.998188) can0 0AD#0000000000000000
(1572903258.998306) can0 036#00
(1572903258.998552) can0 0AC#00000000D2010000
(1572903258.998775) can0 032#00002D01190100
(1572903258.999025) can0 0AB#0000000000000000
(1572903258.999269) can0 0AA#0400090000000000
(1572903258.999511) can0 0A8#2200ABE9FBFF0000
(1572903258.999753) can0 0A7#19000000FDFFF7FF
(1572903258.999997) can0 0A6#FFFFFDFFFEFF0000
(1572903259.000237) can0 0A5#8B06000000009304
(1572903259.000486) can0 0A4#0000000000000000
(1572903259.000712) can0 0A3#EDBDD71EEEB9071F
(1572903259.001801) can0 0C0#0000000000000000
(1572903259.007189) can0 0AD#FFFF000000000000
(1572903259.007435) can0 0AC#00000000D5010000
(1572903259.007685) can0 0AB#0000000000000000
(1572903259.007929) can0 0AA#0400090000000000
(1572903259.008171) can0 0A8#2200ABE9FBFF0000
(1572903259.008417) can0 0A7#190000000000F7FF
(1572903259.008661) can0 0A6#FFFFFDFF00000000
(1572903259.008899) can0 0A5#8C06000000009404
(1572903259.009149) can0 0A4#0000000000000000
(1572903259.009376) can0 0A3#EEBDD71EEEB9071F
(1572903259.011857) can0 0C0#0000000000000000
(1572903259.016189) can0 0AD#FFFF000000000000
(1572903259.016435) can0 0AC#00000100D8010000
(1572903259.016685) can0 0AB#0000000000000000
(1572903259.016929) can0 0AA#0400090000000000
(1572903259.017169) can0 0A8#2200ABE9FCFF0200
(1572903259.017410) can0 0A7#19000000FDFFFCFF
(1572903259.017654) can0 0A6#FCFF000002000000
(1572903259.017892) can0 0A5#8C06000000009304
(1572903259.018142) can0 0A4#0000000000000000
(1572903259.018366) can0 0A3#EEBDC71EEEB9F71E
(1572903259.021891) can0 0C0#0000000000000000
(1572903259.025187) can0 0AD#FFFF000000000000
(1572903259.025435) can0 0AC#0000FFFFDB010000
(1572903259.025685) can0 0AB#0000000000000000
(1572903259.025929) can0 0AA#0400090000000000
(1572903259.026171) can0 0A8#2200ABE9FEFFFEFF
(1572903259.026417) can0 0A7#180000000400F7FF
(1572903259.026661) can0 0A6#0100FDFFFDFF0000
(1572903259.026899) can0 0A5#8C06000000009404
(1572903259.027149) can0 0A4#0000000000000000
(1572903259.027373) can0 0A3#EEBDC71EEEB9F71E
(1572903259.031985) can0 0C0#0000000000000000
(1572903259.034185) can0 0AD#0000000000000000
(1572903259.034429) can0 0AC#0000FEFFDE010000
(1572903259.034679) can0 0AB#0000000000000000
(1572903259.034923) can0 0AA#0400090000000000
(1572903259.035160) can0 0A8#2200ABE9FAFFFDFF
(1572903259.035404) can0 0A7#1A000000FDFFFCFF
(1572903259.035650) can0 0A6#0100FAFF00000000
(1572903259.035888) can0 0A5#8C06000000009704
(1572903259.036138) can0 0A4#0000000000000000
(1572903259.036366) can0 0A3#EEBDD71EEEBD071F
(1572903259.042031) can0 0C0#0000000000000000
(1572903259.043181) can0 0AD#0100000000000000
(1572903259.043427) can0 0AC#00000000E1010000
(1572903259.043677) can0 0AB#0000000000000000
(1572903259.043921) can0 0AA#0400090000000000
(1572903259.044163) can0 0A8#2200ABE9FBFF0000
(1572903259.044407) can0 0A7#1A0000000000F5FF
(1572903259.044651) can0 0A6#FFFFFDFF02000000
(1572903259.044889) can0 0A5#8C06000000009704
(1572903259.045138) can0 0A4#0000000000000000
(1572903259.045364) can0 0A3#EDBDD71EEEBD071F
(1572903259.052068) can0 0C0#0000000000000000
(1572903259.052316) can0 0AD#0000000000000000
(1572903259.052560) can0 0AC#0000FFFFE4010000
(1572903259.052810) can0 0AB#0000000000000000
(1572903259.053054) can0 0AA#0400090000000000
(1572903259.053292) can0 0A8#2200ABE9FAFFFDFF
(1572903259.053534) can0 0A7#19000000FDFFF9FF
(1572903259.053780) can0 0A6#FFFFFAFFFEFF0000
(1572903259.054018) can0 0A5#8C06000000009A04
(1572903259.054268) can0 0A4#0000000000000000
(1572903259.054495) can0 0A3#EEBDD71EEEBD071F
(1572903259.059726) can0 036#00
(1572903259.060382) can0 032#00002D011F0100
(1572903259.061182) can0 0AD#FFFF000000000000
(1572903259.061428) can0 0AC#00000000E7010000
(1572903259.061678) can0 0AB#0000000000000000
(1572903259.061922) can0 0AA#0400090000000000
(1572903259.062162) can0 0A8#2200ABE90000FEFF
(1572903259.062405) can0 0A7#190000000000FCFF
(1572903259.062649) can0 0A6#01000000FEFF0000
(1572903259.062887) can0 0A5#8C06000000009704
(1572903259.063137) can0 0A4#0000000000000000
(1572903259.063365) can0 0A3#EEBDD71EEEB9071F
(1572903259.063614) can0 0C0#0000000000000000
(1572903259.070180) can0 0AD#0100000000000000
(1572903259.070428) can0 0AC#00000000EA010000
(1572903259.070678) can0 0AB#0000000000000000
(1572903259.070922) can0 0AA#0400090000000000
(1572903259.071164) can0 0A8#2200ABE90000FBFF
(1572903259.071408) can0 0A7#160000000000FCFF
(1572903259.071650) can0 0A6#0400FDFF0B000000
(1572903259.071887) can0 0A5#8C06000000009A04
(1572903259.072137) can0 0A4#0000000000000000
(1572903259.072365) can0 0A3#EEBDD71EEEB9071F
(1572903259.072614) can0 0C0#0000000000000000
(1572903259.079182) can0 0AD#0000000000000000
(1572903259.079430) can0 0AC#00000000ED010000
(1572903259.079680) can0 0AB#0000000000000000
(1572903259.079924) can0 0AA#0400090000000000
(1572903259.080166) can0 0A8#2200ABE907000000
(1572903259.080410) can0 0A7#1A0000000000F5FF
(1572903259.080654) can0 0A6#FFFFFDFF02000000
(1572903259.080891) can0 0A5#8C06000000009C04
(1572903259.081141) can0 0A4#0000000000000000
(1572903259.081365) can0 0A3#EEBDD71EEEBDF71E
(1572903259.082225) can0 0C0#0000000000000000
(1572903259.088183) can0 0AD#0000000000000000
(1572903259.088421) can0 0AE#1000B41911051820
(1572903259.088671) can0 0AC#0000FFFFF0010000
(1572903259.088921) can0 0AB#0000000000000000
(1572903259.089165) can0 0AA#0400090000000000
(1572903259.089403) can0 0A9#9700FB00FF017C04
(1572903259.089645) can0 0A8#2200ABE9FEFFFEFF
(1572903259.089892) can0 0A7#1A000000FFFFF7FF
(1572903259.090136) can0 0A6#FFFF0000FAFF0000
(1572903259.090374) can0 0A5#8C06000000009C04
(1572903259.090624) can0 0A4#0000000000000000
(1572903259.090848) can0 0A3#EEBDD71EEEBDF71E
(1572903259.091080) can0 0A2#F0D8F0D865050000
(1572903259.091312) can0 0A1#C20049083908F0D8
(1572903259.091550) can0 0A0#C900CC00CC00BF00
(1572903259.092515) can0 0C0#0000000000000000
(1572903259.097183) can0 0AD#FFFF000000000000
(1572903259.097430) can0 0AC#00000000F3010000
(1572903259.097680) can0 0AB#0000000000000000
(1572903259.097924) can0 0AA#0400090000000000
(1572903259.098168) can0 0A8#2200ABE90000FFFF
(1572903259.098416) can0 0A7#16000000FFFFF7FF
(1572903259.098666) can0 0A6#0100000002000000
(1572903259.098904) can0 0A5#8C06000000009304
(1572903259.099154) can0 0A4#0000000000000000
(1572903259.099381) can0 0A3#EEBDD71EEEBD071F
(1572903259.102368) can0 0C0#0000000000000000
(1572903259.106184) can0 0AD#FFFF000000000000
(1572903259.106432) can0 0AC#00000000F6010000
(1572903259.106682) can0 0AB#0000000000000000
(1572903259.106926) can0 0AA#0400090000000000
(1572903259.107166) can0 0A8#2200ABE903000000
(1572903259.107408) can0 0A7#15000000FDFF0000
(1572903259.107656) can0 0A6#0000020000000000
(1572903259.107896) can0 0A5#8C06000000009204
(1572903259.108146) can0 0A4#0000000000000000
(1572903259.108374) can0 0A3#EEBDD71EEEBD071F
(1572903259.112420) can0 0C0#0000000000000000
(1572903259.115272) can0 0AD#FFFF000000000000
(1572903259.115520) can0 0AC#00000100F9010000
(1572903259.115770) can0 0AB#0000000000000000
(1572903259.116014) can0 0AA#0400090000000000
(1572903259.116252) can0 0A8#2200ABE9FCFF0300
(1572903259.116497) can0 0A7#18000000FFFFF7FF
(1572903259.116741) can0 0A6#FBFF0000FDFF0000
(1572903259.116979) can0 0A5#8C06000000009704
(1572903259.117229) can0 0A4#0000000000000000
(1572903259.117457) can0 0A3#EEBDD71EEEBD071F
(1572903259.121496) can0 067#200000004D951E0D
(1572903259.122485) can0 0C0#0000000000000000
(1572903259.124181) can0 0AD#0100000000000000
(1572903259.124429) can0 0AC#00000200FC010000
(1572903259.124679) can0 0AB#0000000000000000
(1572903259.124923) can0 0AA#0400090000000000
(1572903259.125171) can0 0A8#2200ABE9FFFF0400
(1572903259.125414) can0 0A7#18000000FDFFF7FF
(1572903259.125658) can0 0A6#FBFF0200FEFF0000
(1572903259.125896) can0 0A5#8C06000000009604
(1572903259.126147) can0 0A4#0000000000000000
(1572903259.126374) can0 0A3#EEBDD71EEEBD071F
(1572903259.128240) can0 036#00
(1572903259.128898) can0 032#000027011C0100
(1572903259.132547) can0 0C0#0000000000000000
(1572903259.133183) can0 0AD#FFFF000000000000
(1572903259.133431) can0 0AC#00000000FF010000
(1572903259.133681) can0 0AB#0000000000000000
(1572903259.133924) can0 0AA#0400090000000000
(1572903259.134164) can0 0A8#2200ABE9FEFF0000
(1572903259.134410) can0 0A7#16000000FDFFFCFF
(1572903259.134654) can0 0A6#FEFF000002000000
(1572903259.134892) can0 0A5#8C06000000009104
(1572903259.135142) can0 0A4#0000000000000000
(1572903259.135370) can0 0A3#EEBDD71EEEBD071F
(1572903259.142184) can0 0AD#0000000000000000
(1572903259.142433) can0 0AC#0000000002020000
(1572903259.142683) can0 0AB#0000000000000000
(1572903259.142927) can0 0AA#0400090000000000
(1572903259.143169) can0 0A8#2200ABE9F8FF0000
(1572903259.143413) can0 0A7#1A000000FDFFF9FF
(1572903259.143659) can0 0A6#FEFFFAFFFBFF0000
(1572903259.143897) can0 0A5#8C06000000009704
(1572903259.144148) can0 0A4#0000000000000000
(1572903259.144375) can0 0A3#EEBDD71EEEB9071F
(1572903259.144624) can0 0C0#0000000000000000
(1572903259.151182) can0 0AD#0000000000000000
(1572903259.151432) can0 0AC#0000000005020000
(1572903259.151682) can0 0AB#0000000000000000
(1572903259.151926) can0 0AA#0400090000000000
(1572903259.152166) can0 0A8#2200ABE90D000100
(1572903259.152408) can0 0A7#19000000FDFFF7FF
(1572903259.152650) can0 0A6#00000A00FEFF0000
(1572903259.152888) can0 0A5#8C06000000009B04
(1572903259.153137) can0 0A4#0000000000000000
(1572903259.153365) can0 0A3#EEBDD71EEEB9071F
(1572903259.153614) can0 0C0#0000000000000000
(1572903259.160184) can0 0AD#FFFF000000000000
(1572903259.160430) can0 0AC#0000010008020000
(1572903259.160680) can0 0AB#0000000000000000
(1572903259.160924) can0 0AA#0400090000000000
(1572903259.161164) can0 0A8#2200ABE9F9FF0200
(1572903259.161410) can0 0A7#180000000000FEFF
(1572903259.161654) can0 0A6#FBFFFDFFFEFF0000
(1572903259.161892) can0 0A5#8C06000000009504
(1572903259.162141) can0 0A4#0000000000000000
(1572903259.162369) can0 0A3#EEBDD71EEFBD071F
(1572903259.162692) can0 0C0#0000000000000000
(1572903259.169184) can0 0AD#FFFF000000000000
(1572903259.169432) can0 0AC#000000000B020000
(1572903259.169682) can0 0AB#0000000000000000
(1572903259.169926) can0 0AA#0400090000000000
(1572903259.170168) can0 0A8#2200ABE9F8FF0000
(1572903259.170414) can0 0A7#180000000000FEFF
(1572903259.170658) can0 0A6#FEFFFAFF00000000
(1572903259.170898) can0 0A5#8C06000000009204
(1572903259.171149) can0 0A4#0000000000000000
(1572903259.171376) can0 0A3#EDBDD71EEFBD071F
(1572903259.172762) can0 0C0#0000000000000000
(1572903259.178330) can0 0AD#0100000000000000
(1572903259.178576) can0 0AC#000000000E020000
(1572903259.178826) can0 0AB#0000000000000000
(1572903259.179070) can0 0AA#0400090000000000
(1572903259.179318) can0 0A8#2200ABE9FFFF0400
(1572903259.179562) can0 0A7#190000000400F7FF
(1572903259.179808) can0 0A6#FBFF020000000000
(1572903259.180046) can0 0A5#8C06000000009004
(1572903259.180295) can0 0A4#0000000000000000
(1572903259.180521) can0 0A3#EDBDD71EEEB9071F
(1572903259.182798) can0 0C0#0000000000000000
(1572903259.187242) can0 0AD#0100000000000000
(1572903259.187480) can0 0AE#1000B41911051820
(1572903259.187728) can0 0AC#0000010011020000
(1572903259.187978) can0 0AB#0000000000000000
(1572903259.188222) can0 0AA#0400090000000000
(1572903259.188460) can0 0A9#9700FB00FF017C04
(1572903259.188704) can0 0A8#2200ABE900000100
(1572903259.188948) can0 0A7#19000000FDFFF3FF
(1572903259.189192) can0 0A6#FEFF020000000000
(1572903259.189430) can0 0A5#8C06000000009604
(1572903259.189680) can0 0A4#0000000000000000
(1572903259.189905) can0 0A3#EDBDD71EEEBD071F
(1572903259.190023) can0 036#00
(1572903259.190255) can0 0A2#F0D8F0D865050000
(1572903259.190483) can0 0A1#C10049083908F0D8
(1572903259.190704) can0 032#00002A011C0100
(1572903259.190944) can0 0A0#C900CC00CB00BF00
(1572903259.192845) can0 0C0#0000000000000000
(1572903259.196243) can0 0AD#FFFF000000000000
(1572903259.196491) can0 0AC#0000000014020000
(1572903259.196741) can0 0AB#0000000000000000
(1572903259.196985) can0 0AA#0400090000000000
(1572903259.197229) can0 0A8#2200ABE9FDFFFEFF
(1572903259.197474) can0 0A7#180000000200F9FF
(1572903259.197718) can0 0A6#0000FDFF00000000
(1572903259.197956) can0 0A5#8C06000000009104
(1572903259.198206) can0 0A4#0000000000000000
(1572903259.198432) can0 0A3#EDBDD71EEEBD071F
(1572903259.202939) can0 0C0#0000000000000000
(1572903259.205243) can0 0AD#FFFF000000000000
(1572903259.205488) can0 0AC#0000000017020000
(1572903259.205738) can0 0AB#0000000000000000
(1572903259.205982) can0 0AA#0400090000000000
(1572903259.206224) can0 0A8#2200ABE906000000
(1572903259.206466) can0 0A7#19000000FDFFF9FF
(1572903259.206710) can0 0A6#00000500FEFF0000
(1572903259.206948) can0 0A5#8C06000000009804
(1572903259.207198) can0 0A4#0000000000000000
(1572903259.207426) can0 0A3#EDB9D71EEEBD071F
(1572903259.212985) can0 0C0#0000000000000000
(1572903259.214237) can0 0AD#0100000000000000
(1572903259.214483) can0 0AC#000001001A020000
(1572903259.214733) can0 0AB#0000000000000000
(1572903259.214977) can0 0AA#0400090000000000
(1572903259.215215) can0 0A8#2200ABE9FCFF0300
(1572903259.215457) can0 0A7#1B000000FAFFF7FF
(1572903259.215704) can0 0A6#FBFF000000000000
(1572903259.215942) can0 0A5#8C06000000009604
(1572903259.216192) can0 0A4#0000000000000000
(1572903259.216420) can0 0A3#EEB9D71EEEBD071F
(1572903259.223034) can0 0C0#0000000000000000
(1572903259.223282) can0 0AD#0000000000000000
(1572903259.223524) can0 0AC#0000FEFF1D020000
(1572903259.223774) can0 0AB#0000000000000000
(1572903259.224018) can0 0AA#0400090000000000
(1572903259.224258) can0 0A8#2200ABE90000FCFF
(1572903259.224501) can0 0A7#16000000FAFFF5FF
(1572903259.224743) can0 0A6#0300FDFFFEFF0000
(1572903259.224983) can0 0A5#8C06000000009D04
(1572903259.225233) can0 0A4#0000000000000000
(1572903259.225461) can0 0A3#EEBDD71EEEB9071F
(1572903259.232235) can0 0AD#0000000000000000
(1572903259.232483) can0 0AC#0000000020020000
(1572903259.232733) can0 0AB#0000000000000000
(1572903259.232976) can0 0AA#0400090000000000
(1572903259.233220) can0 0A8#2200ABE90000FFFF
(1572903259.233464) can0 0A7#19000000FFFFF7FF
(1572903259.233712) can0 0A6#0000000002000000
(1572903259.233953) can0 0A5#8B0600000000A004
(1572903259.234202) can0 0A4#0000000000000000
(1572903259.234430) can0 0A3#EEBDD71EEEB9071F
(1572903259.234679) can0 0C0#0000000000000000
(1572903259.241325) can0 0AD#FFFF000000000000
(1572903259.241573) can0 0AC#0000010023020000
(1572903259.241823) can0 0AB#0000000000000000
(1572903259.242067) can0 0AA#0400090000000000
(1572903259.242305) can0 0A8#2200ABE9FCFF0300
(1572903259.242549) can0 0A7#16000000F8FFF7FF
(1572903259.242795) can0 0A6#FEFF000000000000
(1572903259.243033) can0 0A5#8C0600000000A504
(1572903259.243283) can0 0A4#0000000000000000
(1572903259.243511) can0 0A3#EEBDD71EEEBD071F
(1572903259.243760) can0 0C0#0000000000000000
(1572903259.250236) can0 0AD#FFFF000000000000
(1572903259.250482) can0 0AC#0000FFFF26020000
(1572903259.250732) can0 0AB#0000000000000000
(1572903259.250975) can0 0AA#0400090000000000
(1572903259.251217) can0 0A8#2200ABE9FEFFFEFF
(1572903259.251459) can0 0A7#1A0000000200FCFF
(1572903259.251703) can0 0A6#0000FDFF00000000
(1572903259.251941) can0 0A5#8C0600000000A504
(1572903259.252191) can0 0A4#0000000000000000
(1572903259.252419) can0 0A3#EEBDD71EEEBD071F
(1572903259.253202) can0 0C0#0000000000000000
(1572903259.258307) can0 036#00
(1572903259.258961) can0 032#00002D011C0100
(1572903259.259233) can0 0AD#0000000000000000
(1572903259.259477) can0 0AC#0000FFFF29020000
(1572903259.259727) can0 0AB#0000000000000000
(1572903259.259971) can0 0AA#0400090000000000
(1572903259.260209) can0 0A8#2200ABE90500FDFF
(1572903259.260456) can0 0A7#1B0000000000F5FF
(1572903259.260704) can0 0A6#0300020002000000
(1572903259.260946) can0 0A5#8C0600000000AC04
(1572903259.261196) can0 0A4#0000000000000000
(1572903259.261424) can0 0A3#EDBDD71EEFBD071F
(1572903259.263264) can0 0C0#0000000000000000
(1572903259.268232) can0 0AD#FFFF000000000000
(1572903259.268480) can0 0AC#000000002C020000
(1572903259.268730) can0 0AB#0000000000000000
(1572903259.268974) can0 0AA#0400090000000000
(1572903259.269214) can0 0A8#2200ABE903000000
(1572903259.269460) can0 0A7#180000000000F9FF
(1572903259.269704) can0 0A6#00000200FEFF0000
(1572903259.269943) can0 0A5#8C0600000000A804
(1572903259.270193) can0 0A4#0000000000000000
(1572903259.270419) can0 0A3#EDBDD71EEEBD071F
(1572903259.273323) can0 0C0#0000000000000000
(1572903259.277231) can0 0AD#FFFF000000000000
(1572903259.277478) can0 0AC#000000002F020000
