(1572802892.004160) can0 0C0#0000000000000000
(1572802892.014305) can0 0C0#0000000000000000
(1572802892.024440) can0 0C0#0000000000000000
(1572802892.034541) can0 0C0#0000000000000000
(1572802892.044686) can0 0C0#0000000000000000
(1572802892.054775) can0 0C0#0000000000000000
(1572802892.064924) can0 0C0#0000000000000000
(1572802892.075017) can0 0C0#0000000000000000
(1572802892.085162) can0 0C0#0000000000000000
(1572802892.090596) can0 0C1#010001000055
(1572802892.091235) can0 036#00
(1572802892.091885) can0 032#1B1C6501190100
(1572802892.095364) can0 0C0#0000000000000000
(1572802892.105489) can0 0C0#0000000000000000
(1572802892.115615) can0 0C0#0000000000000000
(1572802892.125752) can0 0C0#0000000000000000
(1572802892.135831) can0 0C0#0000000000000000
(1572802892.145964) can0 0C0#0000000000000000
(1572802892.156093) can0 0C0#0000000000000000
(1572802892.159512) can0 0C1#010001000055
(1572802892.160150) can0 036#03
(1572802892.160804) can0 032#1B1C65011C0100
(1572802892.166233) can0 0C0#0000000000000000
(1572802892.176310) can0 0C0#0000000000000000
(1572802892.186434) can0 0C0#0000000000000000
(1572802892.196575) can0 0C0#0000000000000000
(1572802892.205481) can0 0AD#7F00000000000000
(1572802892.205726) can0 0AC#000082FF04000000
(1572802892.205976) can0 0AB#0000000000000000
(1572802892.206220) can0 0AA#0000090000008000
(1572802892.206462) can0 0A8#2200ABE9020009FF
(1572802892.206706) can0 0A7#18000C00FFFFFEFF
(1572802892.206942) can0 0A6#78FF91FF73FF0000
(1572802892.207180) can0 0A5#300212001E000ED0
(1572802892.207430) can0 0A4#0000000000000000
(1572802892.207660) can0 0A3#EE01D01EEEB9F71E
(1572802892.207909) can0 0C0#0000000000000000
(1572802892.214543) can0 0AD#2200000000000000
(1572802892.214787) can0 0AC#000081FF07000000
(1572802892.215037) can0 0AB#0000000000000000
(1572802892.215281) can0 0AA#0000090000008000
(1572802892.215521) can0 0A8#2200ABE9130007FF
(1572802892.215767) can0 0A7#1A0002000000F7FF
(1572802892.216003) can0 0A6#7AFF8CFF7AFF0000
(1572802892.216243) can0 0A5#12020000FFFFC6FC
(1572802892.216492) can0 0A4#0000000000000000
(1572802892.216716) can0 0A3#EEB9D71EEEB9F71E
(1572802892.217069) can0 0C0#0000000000000000
(1572802892.221554) can0 0C1#010001000055
(1572802892.222193) can0 036#03
(1572802892.222845) can0 032#1D1D6501190100
(1572802892.223543) can0 0AD#0200000000000000
(1572802892.223787) can0 0AC#00008FFF0A000000
(1572802892.224037) can0 0AB#0000000000000000
(1572802892.224281) can0 0AA#0000090000008000
(1572802892.224517) can0 0A8#2200ABE90F0022FF
(1572802892.224761) can0 0A7#1A000000FDFFF7FF
(1572802892.224995) can0 0A6#84FF9EFF85FF0000
(1572802892.225231) can0 0A5#0A02FFFFFEFF0A27
(1572802892.225481) can0 0A4#0000000000000000
(1572802892.225704) can0 0A3#EDB9D71EEEB9F71E
(1572802892.226967) can0 0C0#0000000000000000
(1572802892.232545) can0 0AD#0200000000000000
(1572802892.232789) can0 0C2#0100010000550000
(1572802892.233031) can0 0AC#000091FF0D000000
(1572802892.233280) can0 0AB#0000000000000000
(1572802892.233524) can0 0AA#0000090000008000
(1572802892.233762) can0 0A8#2200ABE9140023FF
(1572802892.234006) can0 0A7#19000000FFFFF7FF
(1572802892.234244) can0 0A6#88FF9BFF80FF0000
(1572802892.234484) can0 0A5#070200000000F94E
(1572802892.234734) can0 0A4#0000000000000000
(1572802892.234957) can0 0A3#EDBDD71EEEB9F71E
(1572802892.237033) can0 0C0#0000000000000000
(1572802892.241541) can0 0AD#0100000000000000
(1572802892.241783) can0 0AC#00009DFF10000000
(1572802892.242033) can0 0AB#0000000000000000
(1572802892.242278) can0 0AA#0000090000008000
(1572802892.242517) can0 0A8#2200ABE913003EFF
(1572802892.242765) can0 0A7#18000000FFFFF9FF
(1572802892.243002) can0 0A6#97FFA6FF98FF0000
(1572802892.243242) can0 0A5#070200000000B474
(1572802892.243492) can0 0A4#0000000000000000
(1572802892.243716) can0 0A3#EDBDD71EEEB9F71E
(1572802892.247172) can0 0C0#0000000000000000
(1572802892.250538) can0 0AD#0100000000000000
(1572802892.250780) can0 0AC#00009DFF13000000
(1572802892.251029) can0 0AB#0000000000000000
(1572802892.251273) can0 0AA#0000090000008000
(1572802892.251511) can0 0A8#2200ABE913003DFF
(1572802892.251753) can0 0A7#19000000FFFFF9FF
(1572802892.251989) can0 0A6#98FFA5FF96FF0000
(1572802892.252227) can0 0A5#0602000000005C98
(1572802892.252478) can0 0A4#0000000000000000
(1572802892.252701) can0 0A3#EDBDD71EEEB9F71E
(1572802892.257255) can0 0C0#0000000000000000
(1572802892.259711) can0 0AD#D402000000000000
(1572802892.259957) can0 0AC#0000590016000000
(1572802892.260207) can0 0AB#0000000000000000
(1572802892.260451) can0 0AA#0000090000008000
(1572802892.260686) can0 0A8#2200ABE90D00AF00
(1572802892.260930) can0 0A7#18000000FDFFF9FF
(1572802892.261166) can0 0A6#A3FFB0FF9CFF0000
(1572802892.261392) can0 0A5#7709DBFE18FEEABA
(1572802892.261642) can0 0A4#0000000000000000
(1572802892.261866) can0 0A3#EDB9D71EEEB9F71E
(1572802892.267379) can0 0C0#0000000000000000
(1572802892.268619) can0 0AD#A603000000000000
(1572802892.268863) can0 0AC#0000560019000000
(1572802892.269113) can0 0AB#0000000000000000
(1572802892.269357) can0 0AA#0000090000008000
(1572802892.269598) can0 0A8#2200ABE90000A800
(1572802892.269842) can0 0A7#18000000FDFFF9FF
(1572802892.270079) can0 0A6#A6FFB1FFA8FF0000
(1572802892.270308) can0 0A5#4E09D2FFB3FFBBDA
(1572802892.270558) can0 0A4#0000000000000000
(1572802892.270782) can0 0A3#EDB9D71EEEB9F71E
(1572802892.277517) can0 0C0#0000000000000000
(1572802892.277763) can0 0AD#F900000000000000
(1572802892.278011) can0 0AC#000050001C000000
(1572802892.278261) can0 0AB#0000000000000000
(1572802892.278505) can0 0AA#0000090000008000
(1572802892.278743) can0 0A8#2200ABE918009D00
(1572802892.278985) can0 0A7#190000000200FCFF
(1572802892.279221) can0 0A6#ABFFB6FFA4FF0000
(1572802892.279457) can0 0A5#A3090300040019F9
(1572802892.279707) can0 0A4#0000000000000000
(1572802892.279931) can0 0A3#EDB9D71EEEB9F71E
(1572802892.286617) can0 0AD#0100000000000000
(1572802892.286867) can0 0AC#00004B001F000000
(1572802892.287117) can0 0AB#0000000000000000
(1572802892.287360) can0 0AA#0000090000008000
(1572802892.287598) can0 0A8#2200ABE91C009300
(1572802892.287840) can0 0A7#19000000FDFFF9FF
(1572802892.288076) can0 0A6#B0FFB9FFACFF0000
(1572802892.288308) can0 0A5#B90903000500CB15
(1572802892.288558) can0 0A4#0000000000000000
(1572802892.288782) can0 0A3#EEB9D71EEEB9F71E
(1572802892.289031) can0 0C0#0000000000000000
(1572802892.290407) can0 0C1#010001000055
(1572802892.291045) can0 036#00
(1572802892.291696) can0 032#1B2268011C0100
(1572802892.292538) can0 0C2#0100010000550000
(1572802892.295618) can0 0AD#1400000000000000
(1572802892.295856) can0 0AE#1000B41911051820
(1572802892.296104) can0 0AC#0000450022000000
(1572802892.296354) can0 0AB#0000000000000000
(1572802892.296598) can0 0AA#0400090000008000
(1572802892.296836) can0 0A9#9700FB00FF017B04
(1572802892.297077) can0 0A8#2200ABE91E007C00
(1572802892.297319) can0 0A7#16000000F8FFFCFF
(1572802892.297559) can0 0A6#B7FFC9FFB1FF0000
(1572802892.297795) can0 0A5#BE0901000200E830
(1572802892.298045) can0 0A4#0000000000000000
(1572802892.298269) can0 0A3#EEBDD71EEEB9F71E
(1572802892.298501) can0 0A2#F0D8F0D865050000
(1572802892.298735) can0 0A1#BB001C081208F0D8
(1572802892.298973) can0 0A0#700070007000C300
(1572802892.299222) can0 0C0#0000000000000000
(1572802892.304616) can0 0AD#0B00000000000000
(1572802892.304864) can0 0AC#0000470025000000
(1572802892.305114) can0 0AB#0000000000000000
(1572802892.305358) can0 0AA#0400090000000000
(1572802892.305593) can0 0A8#2200ABE91E008300
(1572802892.305837) can0 0A7#190000000000FCFF
(1572802892.306073) can0 0A6#B6FFC4FFB5FF0000
(1572802892.306311) can0 0A5#C00900000000854A
(1572802892.306561) can0 0A4#0000000000000000
(1572802892.306789) can0 0A3#EEBDD71EEEB9071F
(1572802892.307869) can0 0C0#0000000000000000
(1572802892.313615) can0 0AD#0400000000000000
(1572802892.313861) can0 0AC#00003C0028000000
(1572802892.314111) can0 0AB#0000000000000000
(1572802892.314355) can0 0AA#0400090000000000
(1572802892.314595) can0 0A8#2200ABE91F007D00
(1572802892.314837) can0 0A7#1B000000FDFFFCFF
(1572802892.315077) can0 0A6#B7FFC7FFB9FF0000
(1572802892.315313) can0 0A5#C10900000000BB62
(1572802892.315562) can0 0A4#0000000000000000
(1572802892.315786) can0 0A3#EEBDD71EEEB9F71E
(1572802892.317944) can0 0C0#0000000000000000
(1572802892.322704) can0 0AD#0200000000000000
(1572802892.322948) can0 0AC#00003A002B000000
(1572802892.323198) can0 0AB#0000000000000000
(1572802892.323442) can0 0AA#0400090000000000
(1572802892.323680) can0 0A8#2200ABE918007200
(1572802892.323922) can0 0A7#1A000000FAFFFCFF
(1572802892.324164) can0 0A6#C0FFCAFFC1FF0000
(1572802892.324402) can0 0A5#C10900000000D179
(1572802892.324651) can0 0A4#0000000000000000
(1572802892.324875) can0 0A3#EEB9D71EEEB9F71E
(1572802892.328074) can0 0C0#0000000000000000
(1572802892.331614) can0 0AD#0000000000000000
(1572802892.331860) can0 0AC#00003B002E000000
(1572802892.332110) can0 0AB#0000000000000000
(1572802892.332354) can0 0AA#0400090000000000
(1572802892.332591) can0 0A8#2200ABE91A006E00
(1572802892.332833) can0 0A7#1A0000000200F7FF
(1572802892.333073) can0 0A6#C1FFCEFFBEFF0000
(1572802892.333313) can0 0A5#C009000000003A8F
(1572802892.333563) can0 0A4#0000000000000000
(1572802892.333787) can0 0A3#EEB9D71EEEB9F71E
(1572802892.338144) can0 0C0#0000000000000000
(1572802892.340614) can0 0AD#FFFF000000000000
(1572802892.340858) can0 0AC#0000370031000000
(1572802892.341107) can0 0AB#0000000000000000
(1572802892.341351) can0 0AA#0400090000000000
(1572802892.341587) can0 0A8#2200ABE914006B00
(1572802892.341829) can0 0A7#19000000FFFFF9FF
(1572802892.342067) can0 0A6#C7FFCBFFC2FF0000
(1572802892.342303) can0 0A5#C10900000000AAA3
(1572802892.342553) can0 0A4#0000000000000000
(1572802892.342777) can0 0A3#EDBDD71EEEB9F71E
(1572802892.348258) can0 0C0#0000000000000000
(1572802892.349612) can0 0AD#0100000000000000
(1572802892.349858) can0 0AC#0000330034000000
(1572802892.350108) can0 0AB#0000000000000000
(1572802892.350352) can0 0AA#0400090000000000
(1572802892.350588) can0 0A8#2200ABE914006500
(1572802892.350829) can0 0A7#190000000200FCFF
(1572802892.351069) can0 0A6#CDFFD7FFCAFF0000
(1572802892.351305) can0 0A5#C20900000000F6B6
(1572802892.351555) can0 0A4#0000000000000000
(1572802892.351779) can0 0A3#EEBDD71EEEB9F71E
(1572802892.352469) can0 0C1#010001000055
(1572802892.353097) can0 036#00
(1572802892.353749) can0 032#1B1C5F011C0100
(1572802892.358380) can0 0C0#0000000000000000
(1572802892.358628) can0 0AD#0100000000000000
(1572802892.358872) can0 0AC#00002D0037000000
(1572802892.359122) can0 0AB#0000000000000000
(1572802892.359366) can0 0AA#0400090000000000
(1572802892.359604) can0 0A8#2200ABE914005A00
(1572802892.359846) can0 0A7#19000000FAFFF9FF
(1572802892.360085) can0 0A6#CDFFD6FFC8FF0000
(1572802892.360325) can0 0A5#C2090000000033C9
(1572802892.360575) can0 0A4#0000000000000000
(1572802892.360799) can0 0A3#EEBDD71EEEB9F71E
(1572802892.364529) can0 0C2#0100010000550000
(1572802892.367609) can0 0AD#FFFF000000000000
(1572802892.367857) can0 0AC#000028003A000000
(1572802892.368107) can0 0AB#0000000000000000
(1572802892.368351) can0 0AA#0400090000000000
(1572802892.368587) can0 0A8#2200ABE913005A00
(1572802892.368829) can0 0A7#19000000FDFFF9FF
(1572802892.369067) can0 0A6#CDFFD5FFCEFF0000
(1572802892.369304) can0 0A5#C0090000000072DA
(1572802892.369554) can0 0A4#0000000000000000
(1572802892.369778) can0 0A3#EDBDD71EEEB9F71E
(1572802892.370028) can0 0C0#0000000000000000
(1572802892.376608) can0 0AD#FFFF000000000000
(1572802892.376854) can0 0AC#00002A003D000000
(1572802892.377103) can0 0AB#0000000000000000
(1572802892.377347) can0 0AA#0400090000000000
(1572802892.377581) can0 0A8#2200ABE913005200
(1572802892.377827) can0 0A7#180000000000F7FF
(1572802892.378067) can0 0A6#D0FFDAFFD2FF0000
(1572802892.378303) can0 0A5#C10900000000BCEA
(1572802892.378553) can0 0A4#0000000000000000
(1572802892.378776) can0 0A3#EDBDD71EEEB9F71E
(1572802892.379026) can0 0C0#0000000000000000
(1572802892.385692) can0 0AD#0100000000000000
(1572802892.385940) can0 0AC#0000280040000000
(1572802892.386189) can0 0AB#0000000000000000
(1572802892.386433) can0 0AA#0400090000000000
(1572802892.386669) can0 0A8#2200ABE913004E00
(1572802892.386913) can0 0A7#18000000FDFFF9FF
(1572802892.387151) can0 0A6#D2FFD7FFD1FF0000
(1572802892.387389) can0 0A5#C1090000000048FA
(1572802892.387639) can0 0A4#0000000000000000
(1572802892.387863) can0 0A3#EDBDD71EEEB9F71E
(1572802892.388722) can0 0C0#0000000000000000
(1572802892.394602) can0 0AD#0100000000000000
(1572802892.394840) can0 0AE#1000B41911051820
(1572802892.395087) can0 0AC#0000260043000000
(1572802892.395336) can0 0AB#0000000000000000
(1572802892.395580) can0 0AA#0400090000000000
(1572802892.395816) can0 0A9#9700FB00FF017F04
(1572802892.396056) can0 0A8#2200ABE912004A00
(1572802892.396298) can0 0A7#19000000FDFFF7FF
(1572802892.396538) can0 0A6#D5FFDFFFDAFF0000
(1572802892.396780) can0 0A5#C00900000000B008
(1572802892.397029) can0 0A4#0000000000000000
(1572802892.397253) can0 0A3#EDBDD71EEEB9F71E
(1572802892.397487) can0 0A2#F0D8F0D865050000
(1572802892.397713) can0 0A1#BB0049083908F0D8
(1572802892.397945) can0 0A0#AF00AF00AF00C300
(1572802892.399006) can0 0C0#0000000000000000
(1572802892.403604) can0 0AD#FFFF000000000000
(1572802892.403848) can0 0AC#0000270046000000
(1572802892.404097) can0 0AB#0000000000000000
(1572802892.404341) can0 0AA#0400090000000000
(1572802892.404581) can0 0A8#2200ABE90E004C00
(1572802892.404823) can0 0A7#1A000000FAFFFCFF
(1572802892.405063) can0 0A6#D7FFDAFFD9FF0000
(1572802892.405301) can0 0A5#C109000000006E16
(1572802892.405551) can0 0A4#0000000000000000
(1572802892.405775) can0 0A3#EEBDD71EEEB9F71E
(1572802892.408905) can0 0C0#0000000000000000
(1572802892.412603) can0 0AD#FFFF000000000000
(1572802892.412847) can0 0AC#00001D0049000000
(1572802892.413097) can0 0AB#0000000000000000
(1572802892.413341) can0 0AA#0400090000000000
(1572802892.413579) can0 0A8#2200ABE90D003F00
(1572802892.413825) can0 0A7#16000000FAFFFCFF
(1572802892.414065) can0 0A6#DCFFE2FFDAFF0000
(1572802892.414303) can0 0A5#C109000000006C23
(1572802892.414553) can0 0A4#0000000000000000
(1572802892.414777) can0 0A3#EEBDD71EEEB9F71E
(1572802892.419036) can0 0C0#0000000000000000
(1572802892.421185) can0 0C1#010001000055
(1572802892.421599) can0 0AD#0000000000000000
(1572802892.421849) can0 0AC#000024004C000000
(1572802892.421967) can0 036#00
(1572802892.422217) can0 0AB#0000000000000000
(1572802892.422461) can0 0AA#0400090000000000
(1572802892.422678) can0 032#1B1C68012A0100
(1572802892.422918) can0 0A8#2200ABE90F003E00
(1572802892.423160) can0 0A7#1A000000FAFFFCFF
(1572802892.423400) can0 0A6#DBFFE4FFE0FF0000
(1572802892.423640) can0 0A5#C10900000000B02F
(1572802892.423890) can0 0A4#0000000000000000
(1572802892.424116) can0 0A3#EDBDD71EEFB9F71E
(1572802892.424516) can0 0C2#0100010000550000
(1572802892.429138) can0 0C0#0000000000000000
(1572802892.430596) can0 0AD#0200000000000000
(1572802892.430837) can0 0AC#000021004F000000
(1572802892.431089) can0 0AB#0000000000000000
(1572802892.431331) can0 0AA#0400090000000000
(1572802892.431569) can0 0A8#2200ABE909004100
(1572802892.431815) can0 0A7#140000000400FCFF
(1572802892.432057) can0 0A6#E0FFDDFFDFFF0000
(1572802892.432295) can0 0A5#C109000000004A3B
(1572802892.432545) can0 0A4#0000000000000000
(1572802892.432770) can0 0A3#EDBDD71EEFB9F71E
(1572802892.439281) can0 0C0#0000000000000000
(1572802892.439595) can0 0AD#0100000000000000
(1572802892.439841) can0 0AC#00001D0052000000
(1572802892.440091) can0 0AB#0000000000000000
(1572802892.440335) can0 0AA#0400090000000000
(1572802892.440571) can0 0A8#2200ABE910003A00
(1572802892.440812) can0 0A7#18000000FAFFFCFF
(1572802892.441052) can0 0A6#DCFFE8FFDEFF0000
(1572802892.441290) can0 0A5#C009000000004346
(1572802892.441540) can0 0A4#0000000000000000
(1572802892.441764) can0 0A3#EDB9D71EEEB9F71E
(1572802892.448682) can0 0AD#0000000000000000
(1572802892.448926) can0 0AC#0000170055000000
(1572802892.449176) can0 0AB#0000000000000000
(1572802892.449420) can0 0AA#0400090000000000
(1572802892.449660) can0 0A8#2200ABE90C002E00
(1572802892.449902) can0 0A7#19000000FFFFFCFF
(1572802892.450139) can0 0A6#E4FFE9FFE2FF0000
(1572802892.450379) can0 0A5#C10900000000B250
(1572802892.450629) can0 0A4#0000000000000000
(1572802892.450853) can0 0A3#EEBDD71EEEB9F71E
(1572802892.451102) can0 0C0#0000000000000000
(1572802892.457594) can0 0AD#0000000000000000
(1572802892.457838) can0 0AC#0000190058000000
(1572802892.458090) can0 0AB#0000000000000000
(1572802892.458332) can0 0AA#0400090000000000
(1572802892.458572) can0 0A8#2200ABE90D002E00
(1572802892.458814) can0 0A7#19000000FAFFFCFF
(1572802892.459052) can0 0A6#E2FFEDFFE1FF0000
(1572802892.459290) can0 0A5#C10900000000665A
(1572802892.459540) can0 0A4#0000000000000000
(1572802892.459764) can0 0A3#EEBDD71EEEB9F71E
(1572802892.460013) can0 0C0#0000000000000000
(1572802892.466595) can0 0AD#FFFF000000000000
(1572802892.466839) can0 0AC#000019005B000000
(1572802892.467091) can0 0AB#0000000000000000
(1572802892.467333) can0 0AA#0400090000000000
(1572802892.467571) can0 0A8#2200ABE908002E00
(1572802892.467815) can0 0A7#16000000FFFFFCFF
(1572802892.468055) can0 0A6#E7FFE9FFE6FF0000
(1572802892.468291) can0 0A5#C10900000000A363
(1572802892.468540) can0 0A4#0000000000000000
(1572802892.468764) can0 0A3#EEB9D71EEEB9F71E
(1572802892.469638) can0 0C0#0000000000000000
(1572802892.475591) can0 0AD#FFFF000000000000
(1572802892.475836) can0 0AC#000016005E000000
(1572802892.476085) can0 0AB#0000000000000000
(1572802892.476329) can0 0AA#0400090000000000
(1572802892.476565) can0 0A8#2200ABE90B002B00
(1572802892.476807) can0 0A7#19000000FFFFFEFF
(1572802892.477045) can0 0A6#E5FFEDFFE8FF0000
(1572802892.477283) can0 0A5#C00900000000616C
(1572802892.477533) can0 0A4#0000000000000000
(1572802892.477757) can0 0A3#EEB9D71EEEB9F71E
(1572802892.479723) can0 0C0#0000000000000000
(1572802892.483198) can0 0C1#010001000055
(1572802892.483840) can0 036#00
(1572802892.484492) can0 032#1A1B5F011C0100
(1572802892.484742) can0 0AD#FFFF000000000000
(1572802892.484986) can0 0C2#0100010000550000
(1572802892.485229) can0 0AC#0000120061000000
(1572802892.485479) can0 0AB#0000000000000000
(1572802892.485723) can0 0AA#0400090000000000
(1572802892.485961) can0 0A8#2200ABE908002600
(1572802892.486205) can0 0A7#1A000000FDFFF9FF
(1572802892.486443) can0 0A6#EAFFEEFFECFF0000
(1572802892.486683) can0 0A5#C00900000000A574
(1572802892.486933) can0 0A4#0000000000000000
(1572802892.487156) can0 0A3#EEBDD71EEEB9F71E
(1572802892.489868) can0 0C0#0000000000000000
(1572802892.493588) can0 0AD#0000000000000000
(1572802892.493826) can0 0AE#1000B41911051820
(1572802892.494074) can0 0AC#0000140064000000
(1572802892.494324) can0 0AB#0000000000000000
(1572802892.494568) can0 0AA#0400090000000000
(1572802892.494806) can0 0A9#9700FB00FF017C04
(1572802892.495046) can0 0A8#2200ABE907002700
(1572802892.495290) can0 0A7#18000000FDFFF7FF
(1572802892.495528) can0 0A6#EBFFEDFFEDFF0000
(1572802892.495768) can0 0A5#C00900000000737C
(1572802892.496017) can0 0A4#0000000000000000
(1572802892.496241) can0 0A3#EDBDD71EEEB9F71E
(1572802892.496473) can0 0A2#F0D8F0D865050000
(1572802892.496701) can0 0A1#BA0049083908F0D8
(1572802892.496935) can0 0A0#B400B700B500C200
(1572802892.499964) can0 0C0#0000000000000000
(1572802892.502588) can0 0AD#FFFF000000000000
(1572802892.502832) can0 0AC#0000140067000000
(1572802892.503082) can0 0AB#0000000000000000
(1572802892.503326) can0 0AA#0400090000000000
(1572802892.503564) can0 0A8#2200ABE905002900
(1572802892.503807) can0 0A7#1A000000FDFFF9FF
(1572802892.504049) can0 0A6#EDFFEBFFEBFF0000
(1572802892.504287) can0 0A5#C10900000000D483
(1572802892.504537) can0 0A4#0000000000000000
(1572802892.504761) can0 0A3#EDBDD71EEEB9F71E
(1572802892.510105) can0 0C0#0000000000000000
(1572802892.511677) can0 0AD#FFFF000000000000
(1572802892.511923) can0 0AC#000012006A000000
(1572802892.512173) can0 0AB#0000000000000000
(1572802892.512417) can0 0AA#0400090000000000
(1572802892.512655) can0 0A8#2200ABE906002300
(1572802892.512899) can0 0A7#1A000000FDFFF9FF
(1572802892.513139) can0 0A6#EBFFEBFFEDFF0000
(1572802892.513375) can0 0A5#C10900000000DD8A
(1572802892.513624) can0 0A4#0000000000000000
(1572802892.513848) can0 0A3#EEBDD71EEEB9F71E
(1572802892.520191) can0 0C0#0000000000000000
(1572802892.520587) can0 0AD#FFFF000000000000
(1572802892.520833) can0 0AC#00000F006D000000
(1572802892.521083) can0 0AB#0000000000000000
(1572802892.521327) can0 0AA#0400090000000000
(1572802892.521565) can0 0A8#2200ABE906002700
(1572802892.521811) can0 0A7#1A000000FAFFF9FF
(1572802892.522051) can0 0A6#ECFFECFFF0FF0000
(1572802892.522290) can0 0A5#C109000000006091
(1572802892.522540) can0 0A4#0000000000000000
(1572802892.522764) can0 0A3#EEBDD71EEEB9F71E
(1572802892.529584) can0 0AD#FFFF000000000000
(1572802892.529832) can0 0AC#00000E0070000000
(1572802892.530082) can0 0AB#0000000000000000
(1572802892.530326) can0 0AA#0400090000000000
(1572802892.530570) can0 0A8#2200ABE905001600
(1572802892.530818) can0 0A7#18000000FFFFF9FF
(1572802892.531059) can0 0A6#F3FFF6FFEFFF0000
(1572802892.531295) can0 0A5#C109000000009A97
(1572802892.531545) can0 0A4#0000000000000000
(1572802892.531769) can0 0A3#EEB9D71EEEB9F71E
(1572802892.532018) can0 0C0#0000000000000000
(1572802892.538580) can0 0AD#0000000000000000
(1572802892.538826) can0 0AC#0000120073000000
(1572802892.539076) can0 0AB#0000000000000000
(1572802892.539320) can0 0AA#0400090000000000
(1572802892.539558) can0 0A8#2200ABE905002300
(1572802892.539802) can0 0A7#16000000FFFFFEFF
(1572802892.540044) can0 0A6#EDFFEDFFF3FF0000
(1572802892.540282) can0 0A5#C109000000007B9D
(1572802892.540532) can0 0A4#0000000000000000
(1572802892.540758) can0 0A3#EEB9D71EEFB9F71E
(1572802892.541007) can0 0C0#0000000000000000
(1572802892.547583) can0 0AD#FFFF000000000000
(1572802892.547833) can0 0AC#00000E0076000000
(1572802892.548083) can0 0AB#0000000000000000
(1572802892.548327) can0 0AA#0400090000000000
(1572802892.548570) can0 0A8#2200ABE907001600
(1572802892.548814) can0 0A7#1B000000FFFFF9FF
(1572802892.549052) can0 0A6#F1FFF7FFEEFF0000
(1572802892.549290) can0 0A5#C109000000000AA3
(1572802892.549540) can0 0A4#0000000000000000
(1572802892.549766) can0 0A3#EDB9D71EEFB9F71E
(1572802892.550631) can0 0C0#0000000000000000
(1572802892.552100) can0 0C1#010001000055
(1572802892.552738) can0 036#00
(1572802892.553388) can0 032#1A1B6201240100
(1572802892.556576) can0 0AD#0000000000000000
(1572802892.556820) can0 0C2#0100010000550000
(1572802892.557066) can0 0AC#00000D0079000000
(1572802892.557316) can0 0AB#0000000000000000
(1572802892.557560) can0 0AA#0400090000000000
(1572802892.557800) can0 0A8#2200ABE907001A00
(1572802892.558048) can0 0A7#190000000000F3FF
(1572802892.558288) can0 0A6#EFFFF6FFECFF0000
(1572802892.558528) can0 0A5#C0090000000049A8
(1572802892.558778) can0 0A4#0000000000000000
(1572802892.559004) can0 0A3#EDB9D71EEEB9071F
(1572802892.560671) can0 0C0#0000000000000000
(1572802892.565579) can0 0AD#FFFF000000000000
(1572802892.565827) can0 0AC#00000D007C000000
(1572802892.566077) can0 0AB#0000000000000000
(1572802892.566321) can0 0AA#0400090000000000
(1572802892.566561) can0 0A8#2200ABE903001900
(1572802892.566804) can0 0A7#1A000000FDFFF9FF
(1572802892.567044) can0 0A6#F3FFF3FFF3FF0000
(1572802892.567286) can0 0A5#C009000000003EAD
(1572802892.567536) can0 0A4#0000000000000000
(1572802892.567764) can0 0A3#EEBDD71EEEB9071F
(1572802892.570813) can0 0C0#0000000000000000
(1572802892.574665) can0 0AD#FFFF000000000000
(1572802892.574909) can0 0AC#00000D007F000000
(1572802892.575159) can0 0AB#0000000000000000
(1572802892.575403) can0 0AA#0400090000000000
(1572802892.575645) can0 0A8#2200ABE905001A00
(1572802892.575887) can0 0A7#1B000000F8FFF7FF
(1572802892.576127) can0 0A6#F1FFEEFFEBFF0000
(1572802892.576364) can0 0A5#C00900000000F5B1
(1572802892.576614) can0 0A4#0000000000000000
(1572802892.576838) can0 0A3#EEBDD71EEEB9F71E
(1572802892.580898) can0 0C0#0000000000000000
(1572802892.583574) can0 0AD#FFFF000000000000
(1572802892.583822) can0 0AC#00000D0082000000
(1572802892.584072) can0 0AB#0000000000000000
(1572802892.584316) can0 0AA#0400090000000000
(1572802892.584556) can0 0A8#2200ABE905001800
(1572802892.584800) can0 0A7#16000000FFFFFCFF
(1572802892.585037) can0 0A6#F2FFF4FFF1FF0000
(1572802892.585275) can0 0A5#C1090000000059B6
(1572802892.585525) can0 0A4#0000000000000000
(1572802892.585749) can0 0A3#EEBDD71EEEB9F71E
(1572802892.591039) can0 0C0#0000000000000000
(1572802892.592575) can0 0AD#0000000000000000
(1572802892.592813) can0 0AE#1000B41911051820
(1572802892.593055) can0 0AC#0000090085000000
(1572802892.593304) can0 0AB#0000000000000000
(1572802892.593548) can0 0AA#0400090000000000
(1572802892.593784) can0 0A9#9700FB00FF017F04
(1572802892.594024) can0 0A8#2200ABE902001500
(1572802892.594268) can0 0A7#19000000FFFFF7FF
(1572802892.594506) can0 0A6#F6FFF5FFEDFF0000
(1572802892.594744) can0 0A5#C1090000000088BA
(1572802892.594994) can0 0A4#0000000000000000
(1572802892.595222) can0 0A3#EEBDD71EEEB9071F
(1572802892.595454) can0 0A2#F0D8F0D865050000
(1572802892.595682) can0 0A1#BC0049083908F0D8
(1572802892.595915) can0 0A0#B400B700B500C200
(1572802892.601136) can0 0C0#0000000000000000
(1572802892.601573) can0 0AD#0100000000000000
(1572802892.601819) can0 0AC#0000070088000000
(1572802892.602069) can0 0AB#0000000000000000
(1572802892.602313) can0 0AA#0400090000000000
(1572802892.602551) can0 0A8#2200ABE901000D00
(1572802892.602795) can0 0A7#18000000F8FFF9FF
(1572802892.603035) can0 0A6#F9FFF8FFF6FF0000
(1572802892.603277) can0 0A5#C109000000007CBE
(1572802892.603527) can0 0A4#0000000000000000
(1572802892.603751) can0 0A3#EEB9D71EEEB9F71E
(1572802892.610571) can0 0AD#FFFF000000000000
(1572802892.610817) can0 0AC#000009008B000000
(1572802892.611067) can0 0AB#0000000000000000
(1572802892.611310) can0 0AA#0400090000000000
(1572802892.611548) can0 0A8#2200ABE905001200
(1572802892.611794) can0 0A7#180000000200F9FF
(1572802892.612034) can0 0A6#F4FFF9FFF7FF0000
(1572802892.612272) can0 0A5#C1090000000039C2
(1572802892.612522) can0 0A4#0000000000000000
(1572802892.612746) can0 0A3#EEBDD71EEEB9F71E
(1572802892.612995) can0 0C0#0000000000000000
(1572802892.614076) can0 0C1#010001000055
(1572802892.614707) can0 036#00
(1572802892.615377) can0 032#1C1B68011C0100
(1572802892.616487) can0 0C2#0100010000550000
(1572802892.619567) can0 0AD#0000000000000000
(1572802892.619813) can0 0AC#000008008E000000
(1572802892.620063) can0 0AB#0000000000000000
(1572802892.620307) can0 0AA#0400090000000000
(1572802892.620550) can0 0A8#2200ABE905001000
(1572802892.620800) can0 0A7#18000000FFFFF9FF
(1572802892.621036) can0 0A6#F5FFF9FFF8FF0000
(1572802892.621272) can0 0A5#C10900000000C3C5
(1572802892.621522) can0 0A4#0000000000000000
(1572802892.621746) can0 0A3#EEBDD71EEEB9F71E
(1572802892.621995) can0 0C0#0000000000000000
(1572802892.628567) can0 0AD#0000000000000000
(1572802892.628811) can0 0AC#0000060091000000
(1572802892.629061) can0 0AB#0000000000000000
(1572802892.629305) can0 0AA#0400090000000000
(1572802892.629549) can0 0A8#2200ABE903000D00
(1572802892.629795) can0 0A7#1A0000000000F9FF
(1572802892.630034) can0 0A6#F8FFFAFFF8FF0000
(1572802892.630272) can0 0A5#C109000000001BC9
(1572802892.630522) can0 0A4#0000000000000000
(1572802892.630746) can0 0A3#EEBDD71EEEB9F71E
(1572802892.631602) can0 0C0#0000000000000000
(1572802892.637658) can0 0AD#FFFF000000000000
(1572802892.637901) can0 0AC#0000090094000000
(1572802892.638151) can0 0AB#0000000000000000
(1572802892.638395) can0 0AA#0400090000000000
(1572802892.638633) can0 0A8#2200ABE907001100
(1572802892.638877) can0 0A7#1A000000FFFFF9FF
(1572802892.639119) can0 0A6#F3FFFBFFF8FF0000
(1572802892.639359) can0 0A5#C1090000000049CC
(1572802892.639609) can0 0A4#0000000000000000
(1572802892.639835) can0 0A3#EDBDD71EEEB9071F
(1572802892.641635) can0 0C0#0000000000000000
(1572802892.646569) can0 0AD#FFFF000000000000
(1572802892.646813) can0 0AC#0000070097000000
(1572802892.647063) can0 0AB#0000000000000000
(1572802892.647307) can0 0AA#0400090000000000
(1572802892.647547) can0 0A8#2200ABE901000E00
(1572802892.647795) can0 0A7#18000000FFFFF9FF
(1572802892.648037) can0 0A6#FBFFF8FFF6FF0000
(1572802892.648277) can0 0A5#C109000000003FCF
(1572802892.648526) can0 0A4#0000000000000000
(1572802892.648752) can0 0A3#EDB9D71EEEB9071F
(1572802892.651721) can0 0C0#0000000000000000
(1572802892.655569) can0 0AD#0000000000000000
(1572802892.655815) can0 0AC#000003009A000000
(1572802892.656065) can0 0AB#0000000000000000
(1572802892.656309) can0 0AA#0400090000000000
(1572802892.656551) can0 0A8#2200ABE9FFFF0500
(1572802892.656795) can0 0A7#18000000FDFFF9FF
(1572802892.657039) can0 0A6#FFFFFBFFF9FF0000
(1572802892.657276) can0 0A5#C1090000000016D2
(1572802892.657526) can0 0A4#0000000000000000
(1572802892.657750) can0 0A3#EDB9D71EEEB9F71E
(1572802892.661852) can0 0C0#0000000000000000
(1572802892.664568) can0 0AD#0000000000000000
(1572802892.664812) can0 0AC#000006009D000000
(1572802892.665061) can0 0AB#0000000000000000
(1572802892.665305) can0 0AA#0400090000000000
(1572802892.665543) can0 0A8#2200ABE905000D00
(1572802892.665785) can0 0A7#18000000FAFFF5FF
(1572802892.666027) can0 0A6#FFFFFEFFFDFF0000
(1572802892.666263) can0 0A5#C10900000000BDD4
(1572802892.666513) can0 0A4#0000000000000000
(1572802892.666737) can0 0A3#EDBDD71EEEB9F71E
(1572802892.671993) can0 0C0#0000000000000000
(1572802892.673567) can0 0AD#0000000000000000
(1572802892.673811) can0 0AC#00000700A0000000
(1572802892.674061) can0 0AB#0000000000000000
(1572802892.674305) can0 0AA#0400090000000000
(1572802892.674543) can0 0A8#2200ABE906000F00
(1572802892.674787) can0 0A7#190000000200F9FF
(1572802892.675025) can0 0A6#F4FFFCFFF5FF0000
(1572802892.675261) can0 0A5#C1090000000048D7
(1572802892.675511) can0 0A4#0000000000000000
(1572802892.675734) can0 0A3#EEBDD71EEEB9F71E
(1572802892.682077) can0 0C0#0000000000000000
(1572802892.682567) can0 0AD#0100000000000000
(1572802892.682809) can0 0AC#00000700A3000000
(1572802892.683059) can0 0AB#0000000000000000
(1572802892.683304) can0 0AA#0400090000000000
(1572802892.683547) can0 0A8#2200ABE900000F00
(1572802892.683790) can0 0A7#160000000000F7FF
(1572802892.684032) can0 0A6#FBFFF6FFF8FF0000
(1572802892.684270) can0 0A5#C00900000000ABD9
(1572802892.684520) can0 0A4#0000000000000000
(1572802892.684748) can0 0A3#EEBDD71EEEB9071F
(1572802892.684955) can0 0C1#010001000055
(1572802892.685073) can0 036#00
(1572802892.685677) can0 032#191A65011C0100
(1572802892.688487) can0 0C2#0100010000550000
(1572802892.691571) can0 0AD#FFFF000000000000
(1572802892.691809) can0 0AE#1000B41911051820
(1572802892.692056) can0 0AC#00000600A6000000
(1572802892.692306) can0 0AB#0000000000000000
(1572802892.692550) can0 0AA#0400090000000000
(1572802892.692786) can0 0A9#9700FB00FF017F04
(1572802892.693028) can0 0A8#2200ABE900000B00
(1572802892.693272) can0 0A7#1A000000FFFFF9FF
(1572802892.693516) can0 0A6#FBFFF9FFFBFF0000
(1572802892.693752) can0 0A5#C10900000000EADB
(1572802892.694001) can0 0A4#0000000000000000
(1572802892.694227) can0 0A3#EEB9D71EEEB9071F
(1572802892.694459) can0 0A2#F0D8F0D865050000
(1572802892.694687) can0 0A1#BC0049083908F0D8
(1572802892.694921) can0 0A0#B400B600B600C200
(1572802892.695171) can0 0C0#0000000000000000
(1572802892.700659) can0 0AD#FFFF000000000000
(1572802892.700900) can0 0AC#00000500A9000000
(1572802892.701150) can0 0AB#0000000000000000
(1572802892.701394) can0 0AA#0400090000000000
(1572802892.701636) can0 0A8#2200ABE904000A00
(1572802892.701880) can0 0A7#16000000FFFFF5FF
(1572802892.702122) can0 0A6#F8FFFDFFFEFF0000
(1572802892.702364) can0 0A5#C109000000000FDE
(1572802892.702614) can0 0A4#0000000000000000
(1572802892.702838) can0 0A3#EEB9D71EEEB9F71E
(1572802892.703087) can0 0C0#0000000000000000
(1572802892.709573) can0 0AD#FFFF000000000000
(1572802892.709821) can0 0AC#00000800AC000000
(1572802892.710071) can0 0AB#0000000000000000
(1572802892.710315) can0 0AA#0400090000000000
(1572802892.710557) can0 0A8#2200ABE901001000
(1572802892.710801) can0 0A7#180000000200FCFF
(1572802892.711043) can0 0A6#F8FFF7FF01000000
(1572802892.711284) can0 0A5#C109000000000EE0
(1572802892.711534) can0 0A4#0000000000000000
(1572802892.711758) can0 0A3#EEBDD71EEEB9F71E
(1572802892.712630) can0 0C0#0000000000000000
(1572802892.718568) can0 0AD#0100000000000000
(1572802892.718814) can0 0AC#00000600AF000000
(1572802892.719064) can0 0AB#0000000000000000
(1572802892.719308) can0 0AA#0400090000000000
(1572802892.719548) can0 0A8#2200ABE902000C00
(1572802892.719790) can0 0A7#19000000FDFFF9FF
(1572802892.720032) can0 0A6#F9FFFAFFF6FF0000
(1572802892.720273) can0 0A5#C00900000000F2E1
(1572802892.720523) can0 0A4#0000000000000000
(1572802892.720747) can0 0A3#EDBDD71EEEB9F71E
(1572802892.722506) can0 0C0#0000000000000000
(1572802892.727572) can0 0AD#FFFF000000000000
(1572802892.727820) can0 0AC#00000300B2000000
(1572802892.728070) can0 0AB#0000000000000000
(1572802892.728313) can0 0AA#0400090000000000
(1572802892.728551) can0 0A8#2200ABE9FEFF0600
(1572802892.728795) can0 0A7#15000000FFFFF9FF
(1572802892.729037) can0 0A6#FFFFFAFFF6FF0000
(1572802892.729275) can0 0A5#C10900000000BEE3
(1572802892.729525) can0 0A4#0000000000000000
(1572802892.729749) can0 0A3#EDBDD71EEEB9F71E
(1572802892.732628) can0 0C0#0000000000000000
(1572802892.736570) can0 0AD#0100000000000000
(1572802892.736818) can0 0AC#00000100B5000000
(1572802892.737068) can0 0AB#0000000000000000
(1572802892.737312) can0 0AA#0400090000000000
(1572802892.737554) can0 0A8#2200ABE900000200
(1572802892.737796) can0 0A7#190000000600F9FF
(1572802892.738042) can0 0A6#0000FEFFF7FF0000
(1572802892.738280) can0 0A5#C0090000000071E5
(1572802892.738530) can0 0A4#0000000000000000
(1572802892.738756) can0 0A3#EDBDD71EEEB9071F
(1572802892.742704) can0 0C0#0000000000000000
(1572802892.744861) can0 0C1#010001000055
(1572802892.745567) can0 0AD#0100000000000000
(1572802892.745685) can0 036#00
(1572802892.745931) can0 0AC#00000200B8000000
(1572802892.746150) can0 032#191B68011F0100
(1572802892.746400) can0 0AB#0000000000000000
(1572802892.746644) can0 0AA#0400090000000000
(1572802892.746884) can0 0A8#2200ABE900000500
(1572802892.747130) can0 0A7#1A0000000200F9FF
(1572802892.747374) can0 0A6#FDFFFEFFFDFF0000
(1572802892.747615) can0 0A5#C009000000000BE7
(1572802892.747865) can0 0A4#0000000000000000
(1572802892.748091) can0 0A3#EDBDD71EEEB9071F
(1572802892.748549) can0 0C2#0100010000550000
(1572802892.752862) can0 0C0#0000000000000000
(1572802892.754630) can0 0AD#FFFF000000000000
(1572802892.754874) can0 0AC#00000300BB000000
(1572802892.755124) can0 0AB#0000000000000000
(1572802892.755368) can0 0AA#0400090000000000
(1572802892.755610) can0 0A8#2200ABE900000700
(1572802892.755851) can0 0A7#19000000FDFFFCFF
(1572802892.756095) can0 0A6#FDFFFBFF02000000
(1572802892.756333) can0 0A5#C009000000008EE8
(1572802892.756583) can0 0A4#0000000000000000
(1572802892.756811) can0 0A3#EEBDD71EEEB9071F
(1572802892.762929) can0 0C0#0000000000000000
(1572802892.763719) can0 0AD#0000000000000000
(1572802892.763967) can0 0AC#00000200BE000000
(1572802892.764217) can0 0AB#0000000000000000
(1572802892.764461) can0 0AA#0400090000000000
(1572802892.764701) can0 0A8#2200ABE900000300
(1572802892.764945) can0 0A7#19000000FAFFF7FF
(1572802892.765189) can0 0A6#FEFF030000000000
(1572802892.765428) can0 0A5#C0090000000002EA
(1572802892.765678) can0 0A4#0000000000000000
(1572802892.765906) can0 0A3#EEBDD71EEEB9071F
(1572802892.772628) can0 0AD#0000000000000000
(1572802892.772878) can0 0AC#00000200C1000000
(1572802892.773128) can0 0AB#0000000000000000
(1572802892.773372) can0 0AA#0400090000000000
(1572802892.773610) can0 0A8#2200ABE904000B00
(1572802892.773856) can0 0A7#1A0000000400F9FF
(1572802892.774100) can0 0A6#F8FFFBFFFBFF0000
(1572802892.774338) can0 0A5#C0090000000058EB
(1572802892.774587) can0 0A4#0000000000000000
(1572802892.774815) can0 0A3#EEBDD71EEEB9071F
(1572802892.775064) can0 0C0#0000000000000000
(1572802892.781626) can0 0AD#FFFF000000000000
(1572802892.781872) can0 0AC#00000200C4000000
(1572802892.782122) can0 0AB#0000000000000000
(1572802892.782366) can0 0AA#0400090000000000
(1572802892.782606) can0 0A8#2200ABE906000500
(1572802892.782848) can0 0A7#19000000FFFFFCFF
(1572802892.783092) can0 0A6#F8FF0000FBFF0000
(1572802892.783330) can0 0A5#C009000000009DEC
(1572802892.783580) can0 0A4#0000000000000000
(1572802892.783804) can0 0A3#EEBDD71EEEB9F71E
(1572802892.784053) can0 0C0#0000000000000000
(1572802892.790625) can0 0AD#0000000000000000
(1572802892.790863) can0 0AE#1000B41911051820
(1572802892.791110) can0 0AC#00000300C7000000
(1572802892.791359) can0 0AB#0000000000000000
(1572802892.791603) can0 0AA#0400090000000000
(1572802892.791838) can0 0A9#9700FB00FF018504
(1572802892.792080) can0 0A8#2200ABE900000600
(1572802892.792324) can0 0A7#18000000F8FFF7FF
(1572802892.792566) can0 0A6#FEFFFCFF03000000
(1572802892.792804) can0 0A5#C00900000000D5ED
(1572802892.793054) can0 0A4#0000000000000000
(1572802892.793278) can0 0A3#EEBDD71EEEB9F71E
(1572802892.793510) can0 0A2#F0D8F0D865050000
(1572802892.793737) can0 0A1#BC0049083908F0D8
(1572802892.793973) can0 0A0#B400B600B500C300
(1572802892.794223) can0 0C0#0000000000000000
(1572802892.799625) can0 0AD#FFFF000000000000
(1572802892.799873) can0 0AC#00000100CA000000
(1572802892.800123) can0 0AB#0000000000000000
(1572802892.800367) can0 0AA#0400090000000000
(1572802892.800605) can0 0A8#2200ABE9FEFF0300
(1572802892.800853) can0 0A7#1A00000000000000
(1572802892.801099) can0 0A6#0000FCFFFEFF0000
(1572802892.801341) can0 0A5#C00900000000FBEE
(1572802892.801590) can0 0A4#0000000000000000
(1572802892.801818) can0 0A3#EEBDD71EEEB9071F
(1572802892.803378) can0 0C0#0000000000000000
(1572802892.808624) can0 0AD#0000000000000000
(1572802892.808869) can0 0AC#00000200CD000000
(1572802892.809119) can0 0AB#0000000000000000
(1572802892.809363) can0 0AA#0400090000000000
(1572802892.809603) can0 0A8#2200ABE901000800
(1572802892.809849) can0 0A7#18000000FFFFF7FF
(1572802892.810093) can0 0A6#FBFFFCFFFEFF0000
(1572802892.810333) can0 0A5#C109000000000EF0
(1572802892.810582) can0 0A4#0000000000000000
(1572802892.810806) can0 0A3#EEBDD71EEEB9F71E
(1572802892.813504) can0 0C0#0000000000000000
(1572802892.813791) can0 0C1#010001000055
(1572802892.814429) can0 036#00
(1572802892.815085) can0 032#1C1B6801190100
(1572802892.817625) can0 0AD#FFFF000000000000
(1572802892.817873) can0 0AC#0000FFFFD0000000
(1572802892.818123) can0 0AB#0000000000000000
(1572802892.818367) can0 0AA#0400090000000000
(1572802892.818607) can0 0A8#2200ABE90500FFFF
(1572802892.818848) can0 0A7#19000000FDFFF7FF
(1572802892.819094) can0 0A6#FBFF0400FCFF0000
(1572802892.819332) can0 0A5#C1090000000012F1
(1572802892.819582) can0 0A4#0000000000000000
(1572802892.819806) can0 0A3#EEBDD71EEEB9F71E
(1572802892.820542) can0 0C2#0100010000550000
(1572802892.823618) can0 0C0#0000000000000000
(1572802892.826708) can0 0AD#FFFF000000000000
(1572802892.826954) can0 0AC#00000400D3000000
(1572802892.827204) can0 0AB#0000000000000000
(1572802892.827448) can0 0AA#0400090000000000
(1572802892.827688) can0 0A8#2200ABE901000800
(1572802892.827930) can0 0A7#19000000FDFFF9FF
(1572802892.828174) can0 0A6#FBFFFFFFFCFF0000
(1572802892.828420) can0 0A5#C0090000000009F2
(1572802892.828670) can0 0A4#0000000000000000
(1572802892.828898) can0 0A3#EEBDD71EEFBD071F
(1572802892.833753) can0 0C0#0000000000000000
(1572802892.835621) can0 0AD#FFFF000000000000
(1572802892.835869) can0 0AC#00000000D6000000
(1572802892.836119) can0 0AB#0000000000000000
(1572802892.836363) can0 0AA#0400090000000000
(1572802892.836603) can0 0A8#2200ABE901000000
(1572802892.836849) can0 0A7#15000000FFFFFEFF
(1572802892.837093) can0 0A6#FEFF0100F9FF0000
(1572802892.837329) can0 0A5#C10900000000EEF2
(1572802892.837578) can0 0A4#0000000000000000
(1572802892.837806) can0 0A3#EDBDD71EEFBD071F
(1572802892.843842) can0 0C0#0000000000000000
(1572802892.844618) can0 0AD#FFFF000000000000
(1572802892.844864) can0 0AC#00000400D9000000
(1572802892.845114) can0 0AB#0000000000000000
(1572802892.845358) can0 0AA#0400090000000000
(1572802892.845597) can0 0A8#2200ABE901000800
(1572802892.845843) can0 0A7#190000000000F7FF
(1572802892.846087) can0 0A6#FBFFFCFF00000000
(1572802892.846325) can0 0A5#C10900000000CCF3
(1572802892.846575) can0 0A4#0000000000000000
(1572802892.846803) can0 0A3#EEBDD71EEEB9071F
(1572802892.853619) can0 0AD#FFFF000000000000
(1572802892.853867) can0 0AC#0000FFFFDC000000
(1572802892.854117) can0 0AB#0000000000000000
(1572802892.854361) can0 0AA#0400090000000000
(1572802892.854601) can0 0A8#2200ABE900000500
(1572802892.854845) can0 0A7#16000000FFFFF5FF
(1572802892.855091) can0 0A6#FFFFFCFF05000000
(1572802892.855328) can0 0A5#C109000000009DF4
(1572802892.855578) can0 0A4#0000000000000000
(1572802892.855804) can0 0A3#EEB9D71EEEB9071F
(1572802892.856053) can0 0C0#0000000000000000
(1572802892.862612) can0 0AD#0000000000000000
(1572802892.862861) can0 0AC#00000200DF000000
(1572802892.863111) can0 0AB#0000000000000000
(1572802892.863355) can0 0AA#0400090000000000
(1572802892.863597) can0 0A8#2200ABE900000400
(1572802892.863841) can0 0A7#180000000200FEFF
(1572802892.864085) can0 0A6#FFFFFDFFFAFF0000
(1572802892.864323) can0 0A5#C1090000000063F5
(1572802892.864573) can0 0A4#0000000000000000
(1572802892.864798) can0 0A3#EEB9D71EEEB9071F
(1572802892.865048) can0 0C0#0000000000000000
(1572802892.871615) can0 0AD#0000000000000000
(1572802892.871859) can0 0AC#00000400E2000000
(1572802892.872109) can0 0AB#0000000000000000
(1572802892.872353) can0 0AA#0400090000000000
(1572802892.872593) can0 0A8#2200ABE90100FFFF
(1572802892.872837) can0 0A7#1B000000FFFFF9FF
(1572802892.873079) can0 0A6#FFFF0200FAFF0000
(1572802892.873319) can0 0A5#C109000000001DF6
(1572802892.873569) can0 0A4#0000000000000000
(1572802892.873797) can0 0A3#EEBDD71EEEB9071F
(1572802892.874189) can0 0C0#0000000000000000
(1572802892.875691) can0 0C1#010001000055
(1572802892.876322) can0 036#00
(1572802892.876976) can0 032#1A1B5001270100
(1572802892.880612) can0 0AD#0100000000000000
(1572802892.880856) can0 0C2#0100010000550000
(1572802892.881104) can0 0AC#00000000E5000000
(1572802892.881354) can0 0AB#0000000000000000
(1572802892.881598) can0 0AA#0400090000000000
(1572802892.881838) can0 0A8#2200ABE903000000
(1572802892.882086) can0 0A7#190000000000F3FF
(1572802892.882332) can0 0A6#FBFF020002000000
(1572802892.882570) can0 0A5#C10900000000CBF6
(1572802892.882819) can0 0A4#0000000000000000
(1572802892.883043) can0 0A3#EEBDD71EEEB9F71E
(1572802892.884280) can0 0C0#0000000000000000
(1572802892.889698) can0 0AD#0000000000000000
(1572802892.889936) can0 0AE#1000B41911051820
(1572802892.890182) can0 0AC#00000100E8000000
(1572802892.890431) can0 0AB#0000000000000000
(1572802892.890675) can0 0AA#0400090000000000
(1572802892.890911) can0 0A9#9700FB00FF018B04
(1572802892.891155) can0 0A8#2200ABE902000200
(1572802892.891397) can0 0A7#1B000000FDFFFCFF
(1572802892.891641) can0 0A6#FCFF000000000000
(1572802892.891877) can0 0A5#C1090000000072F7
(1572802892.892127) can0 0A4#0000000000000000
(1572802892.892355) can0 0A3#EEBDD71EEEB9071F
(1572802892.892587) can0 0A2#F0D8F0D865050000
(1572802892.892816) can0 0A1#BC0049083908F0D8
(1572802892.893048) can0 0A0#B400B600B500C200
(1572802892.894368) can0 0C0#0000000000000000
(1572802892.898608) can0 0AD#FFFF000000000000
(1572802892.898854) can0 0AC#00000200EB000000
(1572802892.899104) can0 0AB#0000000000000000
(1572802892.899348) can0 0AA#0400090000000000
(1572802892.899590) can0 0A8#2200ABE900000400
(1572802892.899836) can0 0A7#180000000000F9FF
(1572802892.900079) can0 0A6#FFFFFDFFFAFF0000
(1572802892.900319) can0 0A5#C109000000000EF8
(1572802892.900569) can0 0A4#0000000000000000
(1572802892.900797) can0 0A3#EEBDD71EEEB9071F
(1572802892.904512) can0 0C0#0000000000000000
(1572802892.907610) can0 0AD#FFFF000000000000
(1572802892.907856) can0 0AC#00000200EE000000
(1572802892.908106) can0 0AB#0000000000000000
(1572802892.908349) can0 0AA#0400090000000000
(1572802892.908587) can0 0A8#2200ABE901000600
(1572802892.908831) can0 0A7#160000000000F7FF
(1572802892.909073) can0 0A6#FCFFFDFF02000000
(1572802892.909313) can0 0A5#C10900000000A2F8
(1572802892.909563) can0 0A4#0000000000000000
(1572802892.909787) can0 0A3#EEBDD71EEEB9F71E
(1572802892.914590) can0 0C0#0000000000000000
(1572802892.916606) can0 0AD#FFFF000000000000
(1572802892.916854) can0 0AC#00000400F1000000
(1572802892.917104) can0 0AB#0000000000000000
(1572802892.917348) can0 0AA#0400090000000000
(1572802892.917586) can0 0A8#2200ABE903000900
(1572802892.917832) can0 0A7#1C000000FFFFFEFF
(1572802892.918076) can0 0A6#F9FFFDFFFEFF0000
(1572802892.918314) can0 0A5#C109000000002FF9
(1572802892.918564) can0 0A4#0000000000000000
(1572802892.918788) can0 0A3#EEB9D71EEEB9F71E
(1572802892.924710) can0 0C0#0000000000000000
(1572802892.925606) can0 0AD#FFFF000000000000
(1572802892.925852) can0 0AC#00000500F4000000
(1572802892.926102) can0 0AB#0000000000000000
(1572802892.926346) can0 0AA#0400090000000000
(1572802892.926584) can0 0A8#2200ABE9FDFF0A00
(1572802892.926828) can0 0A7#19000000FFFFF7FF
(1572802892.927076) can0 0A6#FFFFF7FF00000000
(1572802892.927313) can0 0A5#C10900000000B3F9
(1572802892.927563) can0 0A4#0000000000000000
(1572802892.927787) can0 0A3#EEB9D71EEEB9F71E
(1572802892.934605) can0 0AD#FFFF000000000000
(1572802892.934853) can0 0AC#0000FFFFF7000000
(1572802892.935103) can0 0AB#0000000000000000
(1572802892.935347) can0 0AA#0400090000000000
(1572802892.935589) can0 0A8#2200ABE900000000
(1572802892.935833) can0 0A7#16000000FFFFFCFF
(1572802892.936082) can0 0A6#0000000000000000
(1572802892.936320) can0 0A5#C109000000002EFA
(1572802892.936570) can0 0A4#0000000000000000
(1572802892.936794) can0 0A3#EEBDD71EEEB9F71E
(1572802892.937043) can0 0C0#0000000000000000
(1572802892.943601) can0 0AD#FFFF000000000000
(1572802892.943849) can0 0AC#00000100FA000000
(1572802892.944099) can0 0AB#0000000000000000
(1572802892.944343) can0 0AA#0400090000000000
(1572802892.944587) can0 0A8#2200ABE902000200
(1572802892.944831) can0 0A7#1A000000FFFFF9FF
(1572802892.945075) can0 0A6#FDFF000000000000
(1572802892.945317) can0 0A5#C10900000000A5FA
(1572802892.945566) can0 0A4#0000000000000000
(1572802892.945794) can0 0A3#EEBDD71EEEB9071F
(1572802892.946044) can0 0C0#0000000000000000
(1572802892.946251) can0 0C1#010001000055
(1572802892.946695) can0 036#00
(1572802892.947347) can0 032#1A1B6501130100
(1572802892.952687) can0 0AD#0000000000000000
(1572802892.952931) can0 0C2#0100010000550000
(1572802892.953179) can0 0AC#00000100FD000000
(1572802892.953428) can0 0AB#0000000000000000
(1572802892.953672) can0 0AA#0400090000000000
(1572802892.953916) can0 0A8#2200ABE902000200
(1572802892.954158) can0 0A7#19000000FAFFF5FF
(1572802892.954402) can0 0A6#FDFFFEFFFBFF0000
(1572802892.954644) can0 0A5#C1090000000015FB
(1572802892.954894) can0 0A4#0000000000000000
(1572802892.955122) can0 0A3#EEBDD71EEEB9071F
(1572802892.955371) can0 0C0#0000000000000000
(1572802892.961599) can0 0AD#FFFF000000000000
(1572802892.961853) can0 0AC#0000000000010000
(1572802892.962103) can0 0AB#0000000000000000
(1572802892.962347) can0 0AA#0400090000000000
(1572802892.962589) can0 0A8#2200ABE900000000
(1572802892.962835) can0 0A7#180000000200F9FF
(1572802892.963081) can0 0A6#00000000FEFF0000
(1572802892.963321) can0 0A5#C109000000007EFB
(1572802892.963571) can0 0A4#0000000000000000
(1572802892.963797) can0 0A3#EDBDD71EEEB9071F
(1572802892.965149) can0 0C0#0000000000000000
(1572802892.970595) can0 0AD#0000000000000000
(1572802892.970841) can0 0AC#0000010003010000
(1572802892.971091) can0 0AB#0000000000000000
(1572802892.971335) can0 0AA#0400090000000000
(1572802892.971579) can0 0A8#2200ABE9FFFF0200
(1572802892.971821) can0 0A7#19000000FFFFF9FF
(1572802892.972065) can0 0A6#0000FEFF02000000
(1572802892.972307) can0 0A5#C10900000000E0FB
(1572802892.972557) can0 0A4#0000000000000000
(1572802892.972783) can0 0A3#EDBDD71EEEB9071F
(1572802892.975272) can0 0C0#0000000000000000
(1572802892.979594) can0 0AD#0000000000000000
(1572802892.979841) can0 0AC#0000000006010000
(1572802892.980091) can0 0AB#0000000000000000
(1572802892.980335) can0 0AA#0400090000000000
(1572802892.980575) can0 0A8#2200ABE902000100
(1572802892.980822) can0 0A7#180000000000F9FF
(1572802892.981067) can0 0A6#FEFF000000000000
(1572802892.981309) can0 0A5#C109000000003FFC
(1572802892.981558) can0 0A4#0000000000000000
(1572802892.981786) can0 0A3#EEBDD71EEEB9071F
(1572802892.985359) can0 0C0#0000000000000000
(1572802892.988595) can0 0AD#0000000000000000
(1572802892.988833) can0 0AE#1000B41911051820
(1572802892.989081) can0 0AC#0000010009010000
(1572802892.989331) can0 0AB#0000000000000000
(1572802892.989575) can0 0AA#0400090000000000
(1572802892.989809) can0 0A9#9700FB00FF019204
(1572802892.990051) can0 0A8#2200ABE9FBFF0200
(1572802892.990293) can0 0A7#19000000FDFFF9FF
(1572802892.990537) can0 0A6#0200FBFFFEFF0000
(1572802892.990777) can0 0A5#C1090000000094FC
(1572802892.991027) can0 0A4#0000000000000000
(1572802892.991251) can0 0A3#EDBDD71EEEB9F71E
(1572802892.991483) can0 0A2#F0D8F0D865050000
(1572802892.991711) can0 0A1#BC0049083908F0D8
(1572802892.991945) can0 0A0#B400B600B500C200
(1572802892.995492) can0 0C0#0000000000000000
(1572802892.997592) can0 0AD#0000000000000000
(1572802892.997840) can0 0AC#000000000C010000
(1572802892.998090) can0 0AB#0000000000000000
(1572802892.998333) can0 0AA#0400090000000000
(1572802892.998575) can0 0A8#2200ABE901000100
(1572802892.998819) can0 0A7#180000000200FCFF
(1572802892.999067) can0 0A6#FEFF0000FBFF0000
(1572802892.999305) can0 0A5#C10900000000EAFC
(1572802892.999555) can0 0A4#0000000000000000
(1572802892.999779) can0 0A3#EDBDD71EEEB9F71E
(1572802893.005569) can0 0C0#0000000000000000
(1572802893.006460) can0 0C1#010001000055
(1572802893.006710) can0 0AD#FFFF000000000000
(1572802893.006956) can0 0AC#000001000F010000
(1572802893.007206) can0 0AB#0000000000000000
(1572802893.007450) can0 0AA#0400090000000000
(1572802893.007568) can0 036#00
(1572802893.007812) can0 0A8#2200ABE9FFFF0200
(1572802893.008055) can0 0A7#1A000000FAFFF7FF
(1572802893.008271) can0 032#1B1B65011C0100
(1572802893.008515) can0 0A6#0000FEFFFBFF0000
(1572802893.008753) can0 0A5#C1090000000035FD
(1572802893.009002) can0 0A4#0000000000000000
(1572802893.009230) can0 0A3#EEBDD71EEEB9071F
(1572802893.012508) can0 0C2#0100010000550000
(1572802893.015678) can0 0AD#FFFF000000000000
(1572802893.015924) can0 0AC#0000010012010000
(1572802893.016174) can0 0AB#0000000000000000
(1572802893.016418) can0 0AA#0400090000000000
(1572802893.016662) can0 0A8#2200ABE9FFFF0200
(1572802893.016910) can0 0A7#1800000000000000
(1572802893.017156) can0 0A6#00000000FEFF0000
(1572802893.017395) can0 0A5#C1090000000083FD
(1572802893.017645) can0 0A4#0000000000000000
(1572802893.017871) can0 0A3#EEB9D71EEEB9071F
(1572802893.018120) can0 0C0#0000000000000000
(1572802893.024588) can0 0AD#FFFF000000000000
(1572802893.024834) can0 0AC#0000000015010000
(1572802893.025084) can0 0AB#0000000000000000
(1572802893.025328) can0 0AA#0400090000000000
(1572802893.025572) can0 0A8#2200ABE90000FFFF
(1572802893.025816) can0 0A7#190000000000FCFF
(1572802893.026064) can0 0A6#0000000005000000
(1572802893.026302) can0 0A5#C10900000000C7FD
(1572802893.026552) can0 0A4#0000000000000000
(1572802893.026776) can0 0A3#EDB9D71EEEB9F71E
(1572802893.027025) can0 0C0#0000000000000000
(1572802893.033585) can0 0AD#0100000000000000
(1572802893.033833) can0 0AC#0000020018010000
(1572802893.034083) can0 0AB#0000000000000000
(1572802893.034327) can0 0AA#0400090000000000
(1572802893.034569) can0 0A8#2200ABE900000400
(1572802893.034813) can0 0A7#1B000000FDFFF0FF
(1572802893.035060) can0 0A6#FEFFFEFF00000000
(1572802893.035302) can0 0A5#C009000000000BFE
(1572802893.035552) can0 0A4#0000000000000000
(1572802893.035778) can0 0A3#EDB9D71EEEB9071F
(1572802893.036135) can0 0C0#0000000000000000
(1572802893.042587) can0 0AD#FFFF000000000000
(1572802893.042833) can0 0AC#000000001B010000
(1572802893.043083) can0 0AB#0000000000000000
(1572802893.043327) can0 0AA#0400090000000000
(1572802893.043570) can0 0A8#2200ABE90000FFFF
(1572802893.043816) can0 0A7#16000000FAFFFCFF
(1572802893.044062) can0 0A6#0000000008000000
(1572802893.044302) can0 0A5#C1090000000047FE
(1572802893.044552) can0 0A4#0000000000000000
(1572802893.044778) can0 0A3#EEB9D71EEEB9071F
(1572802893.045990) can0 0C0#0000000000000000
(1572802893.051586) can0 0AD#FFFF000000000000
(1572802893.051834) can0 0AC#000003001E010000
(1572802893.052084) can0 0AB#0000000000000000
(1572802893.052328) can0 0AA#0400090000000000
(1572802893.052570) can0 0A8#2200ABE900000700
(1572802893.052816) can0 0A7#16000000FDFFFCFF
(1572802893.053060) can0 0A6#FEFFFBFFFEFF0000
(1572802893.053304) can0 0A5#C1090000000082FE
(1572802893.053554) can0 0A4#0000000000000000
(1572802893.053780) can0 0A3#EEB9D71EEEB9071F
(1572802893.056103) can0 0C0#0000000000000000
(1572802893.060585) can0 0AD#0100000000000000
(1572802893.060826) can0 0AC#0000FEFF21010000
(1572802893.061076) can0 0AB#0000000000000000
(1572802893.061320) can0 0AA#0400090000000000
(1572802893.061564) can0 0A8#2200ABE90000FFFF
(1572802893.061812) can0 0A7#18000000FFFFF9FF
(1572802893.062062) can0 0A6#0000000000000000
(1572802893.062300) can0 0A5#C10900000000BAFE
(1572802893.062550) can0 0A4#0000000000000000
(1572802893.062776) can0 0A3#EDBDD71EEEB9071F
(1572802893.066231) can0 0C0#0000000000000000
(1572802893.069585) can0 0AD#FFFF000000000000
(1572802893.069827) can0 0AC#0000FDFF24010000
(1572802893.070077) can0 0AB#0000000000000000
(1572802893.070321) can0 0AA#0400090000000000
(1572802893.070559) can0 0A8#2200ABE9FEFFFCFF
(1572802893.070801) can0 0A7#19000000FDFFFCFF
(1572802893.071047) can0 0A6#0200000000000000
(1572802893.071285) can0 0A5#C10900000000F0FE
(1572802893.071535) can0 0A4#0000000000000000
(1572802893.071760) can0 0A3#EDBDD71EEEB9071F
(1572802893.075286) can0 0C1#010001000055
(1572802893.075914) can0 036#00
(1572802893.076476) can0 0C0#0000000000000000
(1572802893.077004) can0 032#1A216801420100
(1572802893.078666) can0 0AD#0000000000000000
(1572802893.078912) can0 0AC#0000000027010000
(1572802893.079162) can0 0AB#0000000000000000
(1572802893.079406) can0 0AA#0400090000000000
(1572802893.079646) can0 0A8#2200ABE90000FEFF
(1572802893.079892) can0 0A7#180000000000F9FF
(1572802893.080140) can0 0A6#0000000002000000
(1572802893.080380) can0 0A5#C1090000000023FF
(1572802893.080630) can0 0A4#0000000000000000
(1572802893.080855) can0 0A3#EDBDD71EEEB9071F
(1572802893.084499) can0 0C2#0100010000550000
(1572802893.086410) can0 0C0#0000000000000000
(1572802893.087580) can0 0AD#FFFF000000000000
(1572802893.087818) can0 0AE#1000B41911051820
(1572802893.088064) can0 0AC#000003002A010000
(1572802893.088314) can0 0AB#0000000000000000
(1572802893.088558) can0 0AA#0400090000000000
(1572802893.088794) can0 0A9#9700FB00FF018404
(1572802893.089034) can0 0A8#2200ABE902000600
(1572802893.089281) can0 0A7#190000000000F9FF
(1572802893.089525) can0 0A6#FBFFFEFF00000000
(1572802893.089765) can0 0A5#C1090000000053FF
(1572802893.090015) can0 0A4#0000000000000000
(1572802893.090243) can0 0A3#EEBDD71EEEB9071F
(1572802893.090475) can0 0A2#F0D8F0D865050000
(1572802893.090703) can0 0A1#BB0049083908F0D8
(1572802893.090935) can0 0A0#B300B600B500C200
(1572802893.096558) can0 0C0#0000000000000000
(1572802893.096805) can0 0AD#0100000000000000
(1572802893.097051) can0 0AC#000000002D010000
(1572802893.097301) can0 0AB#0000000000000000
(1572802893.097545) can0 0AA#0400090000000000
(1572802893.097789) can0 0A8#2200ABE9FDFFFFFF
(1572802893.098033) can0 0A7#1A000000FFFFF9FF
(1572802893.098273) can0 0A6#0300FEFF08000000
(1572802893.098515) can0 0A5#C1090000000080FF
(1572802893.098765) can0 0A4#0000000000000000
(1572802893.098993) can0 0A3#EEBDD71EEEB9071F
(1572802893.105578) can0 0AD#FFFF000000000000
(1572802893.105829) can0 0AC#0000000030010000
(1572802893.106078) can0 0AB#0000000000000000
(1572802893.106322) can0 0AA#0400090000000000
(1572802893.106562) can0 0A8#2200ABE90000FEFF
(1572802893.106808) can0 0A7#190000000000F7FF
(1572802893.107054) can0 0A6#00000000FEFF0000
(1572802893.107293) can0 0A5#C10900000000A7FF
(1572802893.107543) can0 0A4#0000000000000000
(1572802893.107769) can0 0A3#EDB9D71EEEB9071F
(1572802893.108019) can0 0C0#0000000000000000
(1572802893.114577) can0 0AD#FFFF000000000000
(1572802893.114818) can0 0AC#0000FEFF33010000
(1572802893.115068) can0 0AB#0000000000000000
(1572802893.115312) can0 0AA#0400090000000000
(1572802893.115550) can0 0A8#2200ABE9FEFFFCFF
(1572802893.115792) can0 0A7#15000000FAFFF9FF
(1572802893.116038) can0 0A6#0300000000000000
(1572802893.116276) can0 0A5#C10900000000CDFF
(1572802893.116526) can0 0A4#0000000000000000
(1572802893.116751) can0 0A3#EDB9D71EEEB9071F
(1572802893.117104) can0 0C0#0000000000000000
(1572802893.123576) can0 0AD#FFFF000000000000
(1572802893.123822) can0 0AC#0000000036010000
(1572802893.124072) can0 0AB#0000000000000000
(1572802893.124316) can0 0AA#0400090000000000
(1572802893.124556) can0 0A8#2200ABE900000300
(1572802893.124802) can0 0A7#180000000000F7FF
(1572802893.125050) can0 0A6#FEFFFEFF00000000
(1572802893.125290) can0 0A5#C10900000000F3FF
(1572802893.125540) can0 0A4#0000000000000000
(1572802893.125766) can0 0A3#EDBDD71EEEB9071F
(1572802893.126863) can0 0C0#0000000000000000
(1572802893.132575) can0 0AD#FFFF000000000000
(1572802893.132821) can0 0AC#0000000039010000
(1572802893.133071) can0 0AB#0000000000000000
(1572802893.133315) can0 0AA#0400090000000000
(1572802893.133555) can0 0A8#2200ABE900000300
(1572802893.133803) can0 0A7#1A000000FFFFF7FF
(1572802893.134051) can0 0A6#FEFFFEFF03000000
(1572802893.134295) can0 0A5#C109000000001200
(1572802893.134545) can0 0A4#0000000000000000
(1572802893.134769) can0 0A3#EDBDD71EEEB9F71E
(1572802893.136996) can0 0C0#0000000000000000
(1572802893.137283) can0 0C1#010001000055
(1572802893.137911) can0 036#00
(1572802893.138566) can0 032#191B6801190100
(1572802893.141658) can0 0AD#0100000000000000
(1572802893.141904) can0 0AC#000002003C010000
(1572802893.142154) can0 0AB#0000000000000000
(1572802893.142398) can0 0AA#0400090000000000
(1572802893.142638) can0 0A8#2200ABE900000300
(1572802893.142882) can0 0A7#19000000FAFFF3FF
(1572802893.143124) can0 0A6#FBFFFEFF03000000
(1572802893.143366) can0 0A5#C109000000003500
(1572802893.143616) can0 0A4#0000000000000000
(1572802893.143839) can0 0A3#EDB9D71EEEB9F71E
(1572802893.144491) can0 0C2#0100010000550000
(1572802893.147111) can0 0C0#0000000000000000
(1572802893.150571) can0 0AD#0100000000000000
(1572802893.150819) can0 0AC#000000003F010000
(1572802893.151069) can0 0AB#0000000000000000
(1572802893.151313) can0 0AA#0400090000000000
(1572802893.151555) can0 0A8#2200ABE902000000
(1572802893.151797) can0 0A7#19000000FDFFF7FF
(1572802893.152043) can0 0A6#FEFF000000000000
(1572802893.152283) can0 0A5#C109000000005500
(1572802893.152533) can0 0A4#0000000000000000
(1572802893.152759) can0 0A3#EEB9D71EEEB9071F
(1572802893.157195) can0 0C0#0000000000000000
(1572802893.159575) can0 0AD#FFFF000000000000
(1572802893.159821) can0 0AC#0000000042010000
(1572802893.160071) can0 0AB#0000000000000000
(1572802893.160315) can0 0AA#0400090000000000
(1572802893.160557) can0 0A8#2200ABE9FFFF0100
(1572802893.160803) can0 0A7#1A0000000400F7FF
(1572802893.161045) can0 0A6#FEFFFEFFF8FF0000
(1572802893.161285) can0 0A5#C109000000007500
(1572802893.161535) can0 0A4#0000000000000000
(1572802893.161763) can0 0A3#EEBDD71EEEB9071F
(1572802893.167334) can0 0C0#0000000000000000
(1572802893.168572) can0 0AD#0100000000000000
(1572802893.168820) can0 0AC#0000020045010000
(1572802893.169070) can0 0AB#0000000000000000
(1572802893.169314) can0 0AA#0400090000000000
(1572802893.169554) can0 0A8#2200ABE900000300
(1572802893.169797) can0 0A7#16000000FFFFFCFF
(1572802893.170043) can0 0A6#00000000FEFF0000
(1572802893.170285) can0 0A5#C109000000009000
(1572802893.170535) can0 0A4#0000000000000000
(1572802893.170761) can0 0A3#EDB9D71EEEB9071F
(1572802893.177475) can0 0C0#0000000000000000
(1572802893.177723) can0 0AD#0000000000000000
(1572802893.177969) can0 0AC#0000FEFF48010000
(1572802893.178218) can0 0AB#0000000000000000
(1572802893.178462) can0 0AA#0400090000000000
(1572802893.178704) can0 0A8#2200ABE90000FBFF
(1572802893.178950) can0 0A7#18000000FDFFF5FF
(1572802893.179198) can0 0A6#0000030000000000
(1572802893.179438) can0 0A5#C10900000000AB00
(1572802893.179688) can0 0A4#0000000000000000
(1572802893.179914) can0 0A3#EDB9D71EEEB9071F
(1572802893.186576) can0 0AD#FFFF000000000000
(1572802893.186814) can0 0AE#1000B41911051820
(1572802893.187057) can0 0AC#0000FDFF4B010000
(1572802893.187307) can0 0AB#0000000000000000
(1572802893.187551) can0 0AA#0400090000000000
(1572802893.187785) can0 0A9#9700FB00FF019104
(1572802893.188027) can0 0A8#2200ABE9FFFFF8FF
(1572802893.188269) can0 0A7#1B000000FAFFF9FF
(1572802893.188511) can0 0A6#02000300FEFF0000
(1572802893.188751) can0 0A5#C10900000000C200
(1572802893.189001) can0 0A4#0000000000000000
(1572802893.189228) can0 0A3#EEBDD71EEEB9071F
(1572802893.189460) can0 0A2#F0D8F0D865050000
(1572802893.189688) can0 0A1#BC0049083908F0D8
(1572802893.189922) can0 0A0#B400B600B500C500
(1572802893.190171) can0 0C0#0000000000000000
(1572802893.195571) can0 0AD#0000000000000000
(1572802893.195817) can0 0AC#000003004E010000
(1572802893.196067) can0 0AB#0000000000000000
(1572802893.196311) can0 0AA#0400090000000000
(1572802893.196551) can0 0A8#2200ABE9FDFF0700
(1572802893.196795) can0 0A7#150000000000F9FF
(1572802893.197039) can0 0A6#0000F9FFFBFF0000
(1572802893.197276) can0 0A5#C10900000000DB00
(1572802893.197526) can0 0A4#0000000000000000
(1572802893.197754) can0 0A3#EEBDD71EEEB9071F
(1572802893.198004) can0 0C0#0000000000000000
(1572802893.204011) can0 067#200000004D95AD13
(1572802893.204665) can0 0AD#FFFF000000000000
(1572802893.204909) can0 0AC#0000010051010000
(1572802893.205159) can0 0AB#0000000000000000
(1572802893.205403) can0 0AA#0400090000000000
(1572802893.205645) can0 0A8#2200ABE900000200
(1572802893.205889) can0 0A7#1A000000FDFFFCFF
(1572802893.206135) can0 0A6#FEFFFFFF00000000
(1572802893.206373) can0 0A5#C10900000000F000
(1572802893.206623) can0 0A4#0000000000000000
(1572802893.206849) can0 0A3#EEB9D71EEEB9071F
(1572802893.207056) can0 0C1#010001000055
(1572802893.207939) can0 0C0#0000000000000000
(1572802893.208296) can0 036#00
(1572802893.208950) can0 032#191B68011C0100
(1572802893.213574) can0 0AD#FFFF000000000000
(1572802893.213816) can0 0AC#0000FEFF54010000
(1572802893.214066) can0 0AB#0000000000000000
(1572802893.214309) can0 0AA#0400090000000000
(1572802893.214551) can0 0A8#2200ABE90100FBFF
(1572802893.214795) can0 0A7#19000000FFFFF7FF
(1572802893.215041) can0 0A6#0000040003000000
(1572802893.215281) can0 0A5#C109000000000701
(1572802893.215531) can0 0A4#0000000000000000
(1572802893.215757) can0 0A3#EEB9D71EEEB9071F
(1572802893.216553) can0 0C2#0100010000550000
(1572802893.217931) can0 0C0#0000000000000000
(1572802893.222573) can0 0AD#FFFF000000000000
(1572802893.222817) can0 0AC#0000FFFF57010000
(1572802893.223067) can0 0AB#0000000000000000
(1572802893.223311) can0 0AA#0400090000000000
(1572802893.223551) can0 0A8#2200ABE90000FEFF
(1572802893.223795) can0 0A7#180000000200FCFF
(1572802893.224043) can0 0A6#00000100FEFF0000
(1572802893.224284) can0 0A5#C109000000001F01
(1572802893.224536) can0 0A4#0000000000000000
(1572802893.224762) can0 0A3#EEBDD71EEEB9071F
(1572802893.228018) can0 0C0#0000000000000000
(1572802893.231576) can0 0AD#FFFF000000000000
(1572802893.231822) can0 0AC#000000005A010000
(1572802893.232072) can0 0AB#0000000000000000
(1572802893.232316) can0 0AA#0400090000000000
(1572802893.232558) can0 0A8#2200ABE902000000
(1572802893.232800) can0 0A7#19000000FFFFF5FF
(1572802893.233045) can0 0A6#FEFF0000FEFF0000
(1572802893.233285) can0 0A5#C109000000003201
(1572802893.233537) can0 0A4#0000000000000000
(1572802893.233763) can0 0A3#EEBDD71EEEB9071F
(1572802893.238148) can0 0C0#0000000000000000
(1572802893.240574) can0 0AD#0000000000000000
(1572802893.240820) can0 0AC#000000005D010000
(1572802893.241070) can0 0AB#0000000000000000
(1572802893.241314) can0 0AA#0400090000000000
(1572802893.241556) can0 0A8#2200ABE9FFFF0000
(1572802893.241799) can0 0A7#1C000000FDFFF7FF
(1572802893.242039) can0 0A6#0000FEFF09000000
(1572802893.242277) can0 0A5#C109000000004201
(1572802893.242527) can0 0A4#0000000000000000
(1572802893.242755) can0 0A3#EEB9D71EEEBD071F
(1572802893.248235) can0 0C0#0000000000000000
(1572802893.249577) can0 0AD#FFFF000000000000
(1572802893.249827) can0 0AC#0000000060010000
(1572802893.250077) can0 0AB#0000000000000000
(1572802893.250321) can0 0AA#0400090000000000
(1572802893.250563) can0 0A8#2200ABE902000000
(1572802893.250805) can0 0A7#19000000FFFFF5FF
(1572802893.251051) can0 0A6#FEFF000000000000
(1572802893.251290) can0 0A5#C109000000005201
(1572802893.251540) can0 0A4#0000000000000000
(1572802893.251766) can0 0A3#EDBDD71EEEBD071F
(1572802893.258366) can0 0C0#0000000000000000
(1572802893.258614) can0 0AD#0000000000000000
(1572802893.258860) can0 0AC#0000000063010000
(1572802893.259110) can0 0AB#0000000000000000
(1572802893.259354) can0 0AA#0400090000000000
(1572802893.259596) can0 0A8#2200ABE902000000
(1572802893.259838) can0 0A7#19000000FDFFFCFF
(1572802893.260082) can0 0A6#FEFF010000000000
(1572802893.260321) can0 0A5#C109000000005F01
(1572802893.260571) can0 0A4#0000000000000000
(1572802893.260797) can0 0A3#EDBDD71EEEB9071F
(1572802893.267723) can0 0AD#FFFF000000000000
(1572802893.267969) can0 0AC#0000000066010000
(1572802893.268219) can0 0AB#0000000000000000
(1572802893.268463) can0 0AA#0400090000000000
(1572802893.268701) can0 0A8#2200ABE9FCFF0100
(1572802893.268942) can0 0A7#16000000FDFFF9FF
(1572802893.269186) can0 0A6#0000FFFFFEFF0000
(1572802893.269424) can0 0A5#C109000000006D01
(1572802893.269674) can0 0A4#0000000000000000
(1572802893.269900) can0 0A3#EDBDD71EEEB9071F
(1572802893.270149) can0 0C0#0000000000000000
(1572802893.270267) can0 036#00
(1572802893.270474) can0 0C1#010001000055
(1572802893.270857) can0 032#191B6201190100
(1572802893.276633) can0 0AD#0000000000000000
(1572802893.276877) can0 0C2#0100010000550000
(1572802893.277123) can0 0AC#0000010069010000
(1572802893.277372) can0 0AB#0000000000000000
(1572802893.277616) can0 0AA#0400090000000000
(1572802893.277856) can0 0A8#2200ABE904000200
(1572802893.278100) can0 0A7#18000000FFFFFCFF
(1572802893.278346) can0 0A6#FBFF0100FBFF0000
(1572802893.278586) can0 0A5#C109000000007A01
(1572802893.278836) can0 0A4#0000000000000000
(1572802893.279064) can0 0A3#EEBDD71EEEB9071F
(1572802893.279313) can0 0C0#0000000000000000
(1572802893.285633) can0 0AD#FFFF000000000000
(1572802893.285871) can0 0AE#1000B41911051820
(1572802893.286115) can0 0AC#000001006C010000
(1572802893.286365) can0 0AB#0000000000000000
(1572802893.286609) can0 0AA#0400090000000000
(1572802893.286843) can0 0A9#9700FB00FF018904
(1572802893.287083) can0 0A8#2200ABE900000300
(1572802893.287327) can0 0A7#1A0000000000F7FF
(1572802893.287571) can0 0A6#FEFFFFFFFEFF0000
(1572802893.287812) can0 0A5#C109000000008701
(1572802893.288062) can0 0A4#0000000000000000
(1572802893.288290) can0 0A3#EEBDD71EEEBD071F
(1572802893.288522) can0 0A2#F0D8F0D865050000
(1572802893.288754) can0 0A1#BE0049083908F0D8
(1572802893.288988) can0 0A0#B300B600B400C200
(1572802893.289237) can0 0C0#0000000000000000
(1572802893.294631) can0 0AD#FFFF000000000000
(1572802893.294877) can0 0AC#000002006F010000
(1572802893.295127) can0 0AB#0000000000000000
(1572802893.295371) can0 0AA#0400090000000000
(1572802893.295609) can0 0A8#2200ABE9FEFF0300
(1572802893.295853) can0 0A7#1C000000FDFFF3FF
(1572802893.296097) can0 0A6#0000FCFF06000000
(1572802893.296335) can0 0A5#C109000000009401
(1572802893.296585) can0 0A4#0000000000000000
(1572802893.296812) can0 0A3#EEBDD71EEEBD071F
(1572802893.298810) can0 0C0#0000000000000000
(1572802893.303628) can0 0AD#FFFF000000000000
(1572802893.303872) can0 0AC#0000010072010000
(1572802893.304122) can0 0AB#0000000000000000
(1572802893.304366) can0 0AA#0400090000000000
(1572802893.304608) can0 0A8#2200ABE900000200
(1572802893.304852) can0 0A7#1A000000FDFFF9FF
(1572802893.305096) can0 0A6#FEFFFFFFFBFF0000
(1572802893.305334) can0 0A5#C10900000000A101
(1572802893.305584) can0 0A4#0000000000000000
(1572802893.305810) can0 0A3#EEB9D71EEEB9071F
(1572802893.308942) can0 0C0#0000000000000000
(1572802893.312626) can0 0AD#0000000000000000
(1572802893.312872) can0 0AC#0000000075010000
(1572802893.313122) can0 0AB#0000000000000000
(1572802893.313366) can0 0AA#0400090000000000
(1572802893.313608) can0 0A8#2200ABE902000000
(1572802893.313852) can0 0A7#18000000FDFFF7FF
(1572802893.314095) can0 0A6#FEFF010000000000
(1572802893.314333) can0 0A5#C10900000000AD01
(1572802893.314583) can0 0A4#0000000000000000
(1572802893.314811) can0 0A3#EEBDD71EEEB9071F
(1572802893.319072) can0 0C0#0000000000000000
(1572802893.321628) can0 0AD#FFFF000000000000
(1572802893.321872) can0 0AC#0000FEFF78010000
(1572802893.322122) can0 0AB#0000000000000000
(1572802893.322366) can0 0AA#0400090000000000
(1572802893.322608) can0 0A8#2200ABE90000FBFF
(1572802893.322848) can0 0A7#1B000000FAFFFCFF
(1572802893.323096) can0 0A6#0000040002000000
(1572802893.323334) can0 0A5#C10900000000B201
(1572802893.323584) can0 0A4#0000000000000000
(1572802893.323811) can0 0A3#EEBDD71EEEB9071F
(1572802893.329165) can0 0C0#0000000000000000
(1572802893.330713) can0 0AD#FFFF000000000000
(1572802893.330959) can0 0AC#0000FFFF7B010000
(1572802893.331209) can0 0AB#0000000000000000
(1572802893.331453) can0 0AA#0400090000000000
(1572802893.331693) can0 0A8#2200ABE901000000
(1572802893.331935) can0 0A7#19000000FFFFFCFF
(1572802893.332177) can0 0A6#FEFF0100FEFF0000
(1572802893.332418) can0 0A5#C10900000000BE01
(1572802893.332668) can0 0A4#0000000000000000
(1572802893.332894) can0 0A3#EDBDD71EEEB9071F
(1572802893.336954) can0 0C1#010001000055
(1572802893.337582) can0 036#00
(1572802893.338234) can0 032#1A1B68011C0100
(1572802893.339294) can0 0C0#0000000000000000
(1572802893.339622) can0 0AD#0100000000000000
(1572802893.339870) can0 0AC#000000007E010000
(1572802893.340120) can0 0AB#0000000000000000
(1572802893.340364) can0 0AA#0400090000000000
(1572802893.340606) can0 0A8#2200ABE9FFFF0000
(1572802893.340848) can0 0A7#160000000200FCFF
(1572802893.341096) can0 0A6#0000FFFF02000000
(1572802893.341334) can0 0A5#C10900000000C901
(1572802893.341584) can0 0A4#0000000000000000
(1572802893.341810) can0 0A3#EDBDD71EEEB9071F
(1572802893.348622) can0 0AD#0000000000000000
(1572802893.348865) can0 0C2#0100010000550000
(1572802893.349111) can0 0AC#0000020081010000
(1572802893.349361) can0 0AB#0000000000000000
(1572802893.349605) can0 0AA#0400090000000000
(1572802893.349845) can0 0A8#2200ABE902000500
(1572802893.350091) can0 0A7#18000000FAFF0000
(1572802893.350337) can0 0A6#FBFFFFFFFBFF0000
(1572802893.350577) can0 0A5#C10900000000D101
(1572802893.350827) can0 0A4#0000000000000000
(1572802893.351055) can0 0A3#EEBDD71EEEBD071F
(1572802893.351304) can0 0C0#0000000000000000
(1572802893.357618) can0 0AD#0000000000000000
(1572802893.357862) can0 0AC#0000FFFF84010000
(1572802893.358112) can0 0AB#0000000000000000
(1572802893.358356) can0 0AA#0400090000000000
(1572802893.358596) can0 0A8#2200ABE90000FEFF
(1572802893.358842) can0 0A7#180000000200F9FF
(1572802893.359090) can0 0A6#00000100FEFF0000
(1572802893.359328) can0 0A5#C10900000000DD01
(1572802893.359578) can0 0A4#0000000000000000
(1572802893.359805) can0 0A3#EEBDD71EEEBD071F
(1572802893.360055) can0 0C0#0000000000000000
(1572802893.366621) can0 0AD#0000000000000000
(1572802893.366865) can0 0AC#0000040087010000
(1572802893.367114) can0 0AB#0000000000000000
(1572802893.367358) can0 0AA#0400090000000000
(1572802893.367598) can0 0A8#2200ABE901000800
(1572802893.367840) can0 0A7#19000000FDFFF7FF
(1572802893.368084) can0 0A6#FBFFFCFF00000000
(1572802893.368322) can0 0A5#C10900000000E601
(1572802893.368572) can0 0A4#0000000000000000
(1572802893.368800) can0 0A3#EEB9D71EEEBD071F
(1572802893.369671) can0 0C0#0000000000000000
(1572802893.375621) can0 0AD#FFFF000000000000
(1572802893.375863) can0 0AC#0000FCFF8A010000
(1572802893.376113) can0 0AB#0000000000000000
(1572802893.376357) can0 0AA#0400090000000000
(1572802893.376599) can0 0A8#2200ABE900000200
(1572802893.376841) can0 0A7#19000000FAFFF9FF
(1572802893.377085) can0 0A6#FEFFFFFFFEFF0000
(1572802893.377323) can0 0A5#C10900000000EE01
(1572802893.377573) can0 0A4#0000000000000000
(1572802893.377801) can0 0A3#EEB9D71EEEBD071F
(1572802893.379753) can0 0C0#0000000000000000
(1572802893.384617) can0 0AD#0000000000000000
(1572802893.384855) can0 0AE#1000B41911051820
(1572802893.385101) can0 0AC#000000008D010000
(1572802893.385351) can0 0AB#0000000000000000
(1572802893.385595) can0 0AA#0400090000000000
(1572802893.385828) can0 0A9#9700FB00FF018704
(1572802893.386070) can0 0A8#2200ABE9FBFF0000
(1572802893.386314) can0 0A7#18000000F8FFF7FF
(1572802893.386558) can0 0A6#0300FCFF00000000
(1572802893.386798) can0 0A5#C10900000000F501
(1572802893.387048) can0 0A4#0000000000000000
(1572802893.387274) can0 0A3#EEB9D71EEEB9071F
(1572802893.387506) can0 0A2#F0D8F0D865050000
(1572802893.387732) can0 0A1#BD0049083908F0D8
(1572802893.387966) can0 0A0#B300B600B500C300
(1572802893.389848) can0 0C0#0000000000000000
(1572802893.393702) can0 0AD#0000000000000000
(1572802893.393950) can0 0AC#0000010090010000
(1572802893.394200) can0 0AB#0000000000000000
(1572802893.394444) can0 0AA#0400090000000000
(1572802893.394685) can0 0A8#2200ABE9FFFF0000
(1572802893.394933) can0 0A7#18000000FFFFF9FF
(1572802893.395177) can0 0A6#0000FEFFFEFF0000
(1572802893.395417) can0 0A5#C10900000000FC01
(1572802893.395667) can0 0A4#0000000000000000
(1572802893.395893) can0 0A3#EDBDD71EEEB9071F
(1572802893.398954) can0 0C1#010001000055
(1572802893.399582) can0 036#00
(1572802893.400147) can0 0C0#0000000000000000
(1572802893.400672) can0 032#191B65011C0100
(1572802893.402618) can0 0AD#FFFF000000000000
(1572802893.402862) can0 0AC#0000FFFF93010000
(1572802893.403112) can0 0AB#0000000000000000
(1572802893.403356) can0 0AA#0400090000000000
(1572802893.403598) can0 0A8#2200ABE900000200
(1572802893.403840) can0 0A7#19000000FFFFFCFF
(1572802893.404088) can0 0A6#FEFFFEFF03000000
(1572802893.404329) can0 0A5#C109000000000502
(1572802893.404579) can0 0A4#0000000000000000
(1572802893.404805) can0 0A3#EDBDD71EEEB9071F
(1572802893.408533) can0 0C2#0100010000550000
(1572802893.410083) can0 0C0#0000000000000000
(1572802893.411613) can0 0AD#FFFF000000000000
(1572802893.411857) can0 0AC#0000040096010000
(1572802893.412106) can0 0AB#0000000000000000
(1572802893.412350) can0 0AA#0400090000000000
(1572802893.412588) can0 0A8#2200ABE9FEFF0900
(1572802893.412832) can0 0A7#160000000000F9FF
(1572802893.413074) can0 0A6#FEFFF8FFFEFF0000
(1572802893.413314) can0 0A5#C109000000000A02
(1572802893.413564) can0 0A4#0000000000000000
(1572802893.413792) can0 0A3#EEBDD71EEEB9071F
(1572802893.420212) can0 0C0#0000000000000000
(1572802893.420610) can0 0AD#0000000000000000
(1572802893.420856) can0 0AC#0000000099010000
(1572802893.421106) can0 0AB#0000000000000000
(1572802893.421350) can0 0AA#0400090000000000
(1572802893.421592) can0 0A8#2200ABE9FFFF0000
(1572802893.421840) can0 0A7#1B0000000000F7FF
(1572802893.422084) can0 0A6#0000FEFFFEFF0000
(1572802893.422324) can0 0A5#C109000000001102
(1572802893.422574) can0 0A4#0000000000000000
(1572802893.422800) can0 0A3#EDBDD71EEEBD071F
(1572802893.429610) can0 0AD#FFFF000000000000
(1572802893.429856) can0 0AC#000000009C010000
(1572802893.430106) can0 0AB#0000000000000000
(1572802893.430350) can0 0AA#0400090000000000
(1572802893.430592) can0 0A8#2200ABE9FFFF0000
(1572802893.430836) can0 0A7#160000000000F9FF
(1572802893.431080) can0 0A6#0000FEFFFEFF0000
(1572802893.431320) can0 0A5#C109000000001A02
(1572802893.431570) can0 0A4#0000000000000000
(1572802893.431795) can0 0A3#EDBDD71EEEBD071F
(1572802893.432045) can0 0C0#0000000000000000
(1572802893.438609) can0 0AD#0000000000000000
(1572802893.438857) can0 0AC#000000009F010000
(1572802893.439106) can0 0AB#0000000000000000
(1572802893.439350) can0 0AA#0400090000000000
(1572802893.439592) can0 0A8#2200ABE9FFFF0000
(1572802893.439838) can0 0A7#18000000FFFFF7FF
(1572802893.440082) can0 0A6#0000FEFFFEFF0000
(1572802893.440320) can0 0A5#C109000000002102
(1572802893.440570) can0 0A4#0000000000000000
(1572802893.440798) can0 0A3#EEBDD71EEEBD071F
(1572802893.441049) can0 0C0#0000000000000000
(1572802893.447605) can0 0AD#0000000000000000
(1572802893.447849) can0 0AC#00000100A2010000
(1572802893.448099) can0 0AB#0000000000000000
(1572802893.448343) can0 0AA#0400090000000000
(1572802893.448585) can0 0A8#2200ABE900000200
(1572802893.448831) can0 0A7#1A0000000000F9FF
(1572802893.449077) can0 0A6#FEFFFFFF03000000
(1572802893.449317) can0 0A5#C109000000002202
(1572802893.449567) can0 0A4#0000000000000000
(1572802893.449795) can0 0A3#EEB9D71EEEBD071F
(1572802893.450658) can0 0C0#0000000000000000
(1572802893.456698) can0 0AD#FFFF000000000000
(1572802893.456942) can0 0AC#0000FFFFA5010000
(1572802893.457192) can0 0AB#0000000000000000
(1572802893.457436) can0 0AA#0400090000000000
(1572802893.457680) can0 0A8#2200ABE9FDFFFEFF
(1572802893.457926) can0 0A7#1A000000FAFFF9FF
(1572802893.458170) can0 0A6#0300FEFF06000000
(1572802893.458407) can0 0A5#C109000000002802
(1572802893.458657) can0 0A4#0000000000000000
(1572802893.458885) can0 0A3#EEBDD71EEEBD071F
(1572802893.460648) can0 0C0#0000000000000000
(1572802893.465602) can0 0AD#0000000000000000
(1572802893.465847) can0 0AC#0000FFFFA8010000
(1572802893.466097) can0 0AB#0000000000000000
(1572802893.466341) can0 0AA#0400090000000000
(1572802893.466581) can0 0A8#2200ABE90000FEFF
(1572802893.466823) can0 0A7#180000000200F5FF
(1572802893.467069) can0 0A6#00000000FEFF0000
(1572802893.467309) can0 0A5#C109000000003002
(1572802893.467559) can0 0A4#0000000000000000
(1572802893.467786) can0 0A3#EEBDD71EEEBD071F
(1572802893.468010) can0 0C1#010001000055
(1572802893.468524) can0 0C2#0100010000550000
(1572802893.469261) can0 036#00
(1572802893.469915) can0 032#181A6801040100
(1572802893.470778) can0 0C0#0000000000000000
(1572802893.474600) can0 0AD#0000000000000000
(1572802893.474848) can0 0AC#00000100AB010000
(1572802893.475098) can0 0AB#0000000000000000
(1572802893.475342) can0 0AA#0400090000000000
(1572802893.475580) can0 0A8#2200ABE9FEFF0300
(1572802893.475828) can0 0A7#1A000000FFFFF7FF
(1572802893.476076) can0 0A6#0000FBFFFBFF0000
(1572802893.476314) can0 0A5#C109000000003302
(1572802893.476564) can0 0A4#0000000000000000
(1572802893.476792) can0 0A3#EEBDD71EEEBD071F
(1572802893.480907) can0 0C0#0000000000000000
(1572802893.483603) can0 0AD#FFFF000000000000
(1572802893.483841) can0 0AE#1000B41911051820
(1572802893.484085) can0 0AC#00000200AE010000
(1572802893.484335) can0 0AB#0000000000000000
(1572802893.484579) can0 0AA#0400090000000000
(1572802893.484819) can0 0A9#9700FB00FF018204
(1572802893.485059) can0 0A8#2200ABE902000500
(1572802893.485301) can0 0A7#19000000FDFFF7FF
(1572802893.485546) can0 0A6#FBFFFFFFFBFF0000
(1572802893.485784) can0 0A5#C109000000003902
(1572802893.486034) can0 0A4#0000000000000000
(1572802893.486262) can0 0A3#EEBDD71EEEB9071F
(1572802893.486494) can0 0A2#F0D8F0D865050000
(1572802893.486722) can0 0A1#BC0049083908F0D8
(1572802893.486954) can0 0A0#B300B600B500C200
(1572802893.491004) can0 0C0#0000000000000000
(1572802893.492603) can0 0AD#FFFF000000000000
(1572802893.492847) can0 0AC#00000300B1010000
(1572802893.493097) can0 0AB#0000000000000000
(1572802893.493341) can0 0AA#0400090000000000
(1572802893.493583) can0 0A8#2200ABE9FFFF0000
(1572802893.493827) can0 0A7#1A000000FDFFFCFF
(1572802893.494071) can0 0A6#0000FFFFFEFF0000
(1572802893.494309) can0 0A5#C109000000003D02
(1572802893.494559) can0 0A4#0000000000000000
(1572802893.494787) can0 0A3#EEBDD71EEEB9071F
(1572802893.501132) can0 0C0#0000000000000000
(1572802893.501596) can0 0AD#0000000000000000
(1572802893.501842) can0 0AC#00000100B4010000
(1572802893.502092) can0 0AB#0000000000000000
(1572802893.502336) can0 0AA#0400090000000000
(1572802893.502578) can0 0A8#2200ABE900000200
(1572802893.502822) can0 0A7#1A0000000000F7FF
(1572802893.503066) can0 0A6#FEFFFFFFFEFF0000
(1572802893.503306) can0 0A5#C109000000004202
(1572802893.503555) can0 0A4#0000000000000000
(1572802893.503783) can0 0A3#EEBDD71EEEB9071F
(1572802893.510597) can0 0AD#FFFF000000000000
(1572802893.510841) can0 0AC#0000FFFFB7010000
(1572802893.511091) can0 0AB#0000000000000000
(1572802893.511335) can0 0AA#0400090000000000
(1572802893.511579) can0 0A8#2200ABE90000FDFF
(1572802893.511821) can0 0A7#140000000200FCFF
(1572802893.512069) can0 0A6#0000010000000000
(1572802893.512307) can0 0A5#C109000000004402
(1572802893.512557) can0 0A4#0000000000000000
(1572802893.512785) can0 0A3#EEBDD71EEEB9071F
(1572802893.513034) can0 0C0#0000000000000000
(1572802893.519686) can0 0AD#FFFF000000000000
(1572802893.519932) can0 0AC#00000200BA010000
(1572802893.520182) can0 0AB#0000000000000000
(1572802893.520426) can0 0AA#0400090000000000
(1572802893.520666) can0 0A8#2200ABE902000500
(1572802893.520908) can0 0A7#19000000FFFFF9FF
(1572802893.521151) can0 0A6#FEFFFFFFFBFF0000
(1572802893.521391) can0 0A5#C109000000004802
(1572802893.521641) can0 0A4#0000000000000000
(1572802893.521867) can0 0A3#EDBDD71EEEB9071F
(1572802893.522116) can0 0C0#0000000000000000
(1572802893.528598) can0 0AD#FFFF000000000000
(1572802893.528846) can0 0AC#00000000BD010000
(1572802893.529096) can0 0AB#0000000000000000
(1572802893.529340) can0 0AA#0400090000000000
(1572802893.529584) can0 0A8#2200ABE90000FDFF
(1572802893.529828) can0 0A7#1A000000FFFFFCFF
(1572802893.529946) can0 036#00
(1572802893.530193) can0 0A6#0000010000000000
(1572802893.530431) can0 0A5#C109000000004D02
(1572802893.530649) can0 032#1A1A68011C0100
(1572802893.530899) can0 0A4#0000000000000000
(1572802893.531127) can0 0A3#EDBDD71EEFBD071F
(1572802893.531470) can0 0C0#0000000000000000
(1572802893.537594) can0 0AD#FFFF000000000000
(1572802893.537842) can0 0AC#00000000C0010000
(1572802893.538092) can0 0AB#0000000000000000
(1572802893.538336) can0 0AA#0400090000000000
(1572802893.538578) can0 0A8#2200ABE9FFFF0000
(1572802893.538822) can0 0A7#15000000FFFFF9FF
(1572802893.539071) can0 0A6#0000FFFF00000000
(1572802893.539309) can0 0A5#C109000000004F02
(1572802893.539559) can0 0A4#0000000000000000
(1572802893.539787) can0 0A3#EDBDD71EEFBD071F
(1572802893.541588) can0 0C0#0000000000000000
(1572802893.546592) can0 0AD#FFFF000000000000
(1572802893.546836) can0 0AC#0000FDFFC3010000
(1572802893.547086) can0 0AB#0000000000000000
(1572802893.547330) can0 0AA#0400090000000000
(1572802893.547571) can0 0A8#2200ABE90000FAFF
(1572802893.547811) can0 0A7#1D000000FAFFEEFF
(1572802893.548055) can0 0A6#00000400FEFF0000
(1572802893.548293) can0 0A5#C209000000005102
(1572802893.548543) can0 0A4#0000000000000000
(1572802893.548769) can0 0A3#EDBDD71EEEB9071F
(1572802893.551714) can0 0C0#0000000000000000
(1572802893.555590) can0 0AD#0000000000000000
(1572802893.555834) can0 0AC#00000100C6010000
(1572802893.556084) can0 0AB#0000000000000000
(1572802893.556328) can0 0AA#0400090000000000
(1572802893.556569) can0 0A8#2200ABE900000200
(1572802893.556817) can0 0A7#190000000000F9FF
(1572802893.557061) can0 0A6#FEFFFFFFFEFF0000
(1572802893.557301) can0 0A5#C209000000005202
(1572802893.557551) can0 0A4#0000000000000000
(1572802893.557777) can0 0A3#EDBDD71EEEB9071F
(1572802893.561797) can0 0C0#0000000000000000
(1572802893.564589) can0 0AD#0000000000000000
(1572802893.564833) can0 0AC#0000FCFFC9010000
(1572802893.565082) can0 0AB#0000000000000000
(1572802893.565326) can0 0AA#0400090000000000
(1572802893.565570) can0 0A8#2200ABE9FFFFF7FF
(1572802893.565816) can0 0A7#18000000FDFFFCFF
(1572802893.566062) can0 0A6#0300040000000000
(1572802893.566300) can0 0A5#C109000000005202
(1572802893.566550) can0 0A4#0000000000000000
(1572802893.566776) can0 0A3#EDBDD71EEEBD071F
(1572802893.571926) can0 0C0#0000000000000000
(1572802893.573588) can0 0AD#0000000000000000
(1572802893.573834) can0 0AC#0000FCFFCC010000
(1572802893.574084) can0 0AB#0000000000000000
(1572802893.574328) can0 0AA#0400090000000000
(1572802893.574566) can0 0A8#2200ABE90200FCFF
(1572802893.574808) can0 0A7#19000000FDFFF7FF
(1572802893.575052) can0 0A6#FEFF0400F6FF0000
(1572802893.575289) can0 0A5#C209000000005602
(1572802893.575539) can0 0A4#0000000000000000
(1572802893.575765) can0 0A3#EDBDD71EEEB9071F
(1572802893.582057) can0 0C0#0000000000000000
(1572802893.582678) can0 0AD#FFFF000000000000
(1572802893.582916) can0 0AE#1000B41911051820
(1572802893.583162) can0 0AC#0000FFFFCF010000
(1572802893.583412) can0 0AB#0000000000000000
(1572802893.583657) can0 0AA#0400090000000000
(1572802893.583889) can0 0A9#9700FB00FF018904
(1572802893.584133) can0 0A8#2200ABE9FDFFFEFF
(1572802893.584375) can0 0A7#19000000FFFFFCFF
(1572802893.584619) can0 0A6#FBFFFFFFF8FF0000
(1572802893.584857) can0 0A5#C209000000005602
(1572802893.585107) can0 0A4#0000000000000000
(1572802893.585335) can0 0A3#EEBDD71EEEB9071F
(1572802893.585567) can0 0A2#F0D8F0D865050000
(1572802893.585795) can0 0A1#BB0049083908F0D8
(1572802893.586029) can0 0A0#B300B600B500C300
(1572802893.591584) can0 0AD#FFFF000000000000
(1572802893.591830) can0 0AC#0000FFFFD2010000
(1572802893.592080) can0 0AB#0000000000000000
(1572802893.592324) can0 0AA#0400090000000000
(1572802893.592564) can0 0A8#2200ABE90200FDFF
(1572802893.592808) can0 0A7#180000000200F7FF
(1572802893.593050) can0 0A6#FEFF040003000000
(1572802893.593290) can0 0A5#C209000000005702
(1572802893.593540) can0 0A4#0000000000000000
(1572802893.593767) can0 0A3#EEB9D71EEEBD071F
(1572802893.594017) can0 0C0#0000000000000000
(1572802893.598485) can0 036#00
(1572802893.599135) can0 032#191B6501190100
(1572802893.600583) can0 0AD#0000000000000000
(1572802893.600826) can0 0AC#0000FFFFD5010000
(1572802893.601076) can0 0AB#0000000000000000
(1572802893.601320) can0 0AA#0400090000000000
(1572802893.601560) can0 0A8#2200ABE90000FEFF
(1572802893.601804) can0 0A7#18000000FDFFF9FF
(1572802893.602052) can0 0A6#00000100FEFF0000
(1572802893.602290) can0 0A5#C209000000005902
(1572802893.602539) can0 0A4#0000000000000000
(1572802893.602765) can0 0A3#EDBDD71EEEBD071F
(1572802893.603015) can0 0C0#0000000000000000
(1572802893.609579) can0 0AD#0100000000000000
(1572802893.609826) can0 0AC#0000FFFFD8010000
(1572802893.610076) can0 0AB#0000000000000000
(1572802893.610320) can0 0AA#0400090000000000
(1572802893.610560) can0 0A8#2200ABE90000FEFF
(1572802893.610804) can0 0A7#19000000FFFFF7FF
(1572802893.611052) can0 0A6#0000010000000000
(1572802893.611292) can0 0A5#C109000000005602
(1572802893.611542) can0 0A4#0000000000000000
(1572802893.611767) can0 0A3#EDBDD71EEEBD071F
(1572802893.612613) can0 0C0#0000000000000000
(1572802893.618581) can0 0AD#FFFF000000000000
(1572802893.618825) can0 0AC#0000FDFFDB010000
(1572802893.619075) can0 0AB#0000000000000000
(1572802893.619319) can0 0AA#0400090000000000
(1572802893.619561) can0 0A8#2200ABE90000FAFF
(1572802893.619805) can0 0A7#16000000FFFFF9FF
(1572802893.620049) can0 0A6#00000400FEFF0000
(1572802893.620289) can0 0A5#C109000000005602
(1572802893.620539) can0 0A4#0000000000000000
(1572802893.620767) can0 0A3#EEBDD71EEEBD071F
(1572802893.622500) can0 0C0#0000000000000000
(1572802893.627578) can0 0AD#0000000000000000
(1572802893.627824) can0 0AC#00000000DE010000
(1572802893.628074) can0 0AB#0000000000000000
(1572802893.628318) can0 0AA#0400090000000000
(1572802893.628560) can0 0A8#2200ABE902000000
(1572802893.628804) can0 0A7#180000000400F9FF
(1572802893.629046) can0 0A6#FEFF0100FEFF0000
(1572802893.629284) can0 0A5#C109000000005802
(1572802893.629533) can0 0A4#0000000000000000
(1572802893.629761) can0 0A3#EEBDD71EEEB9071F
(1572802893.632631) can0 0C0#0000000000000000
(1572802893.636577) can0 0AD#0000000000000000
(1572802893.636823) can0 0AC#0000FFFFE1010000
(1572802893.637073) can0 0AB#0000000000000000
(1572802893.637316) can0 0AA#0400090000000000
(1572802893.637556) can0 0A8#2200ABE90200FDFF
(1572802893.637800) can0 0A7#18000000FDFFF7FF
(1572802893.638046) can0 0A6#FEFF040006000000
(1572802893.638284) can0 0A5#C109000000005802
(1572802893.638534) can0 0A4#0000000000000000
(1572802893.638761) can0 0A3#EDBDD71EEEBD071F
(1572802893.642724) can0 0C0#0000000000000000
(1572802893.645666) can0 0AD#FFFF000000000000
(1572802893.645910) can0 0AC#00000200E4010000
(1572802893.646161) can0 0AB#0000000000000000
(1572802893.646403) can0 0AA#0400090000000000
(1572802893.646643) can0 0A8#2200ABE902000500
(1572802893.646887) can0 0A7#1A000000FAFFF5FF
(1572802893.647129) can0 0A6#FBFFFCFFF8FF0000
(1572802893.647371) can0 0A5#C109000000005A02
(1572802893.647621) can0 0A4#0000000000000000
(1572802893.647849) can0 0A3#EEBDD71EEEBD071F
(1572802893.652864) can0 0C0#0000000000000000
(1572802893.654578) can0 0AD#FFFF000000000000
(1572802893.654823) can0 0AC#0000FFFFE7010000
(1572802893.655073) can0 0AB#0000000000000000
(1572802893.655317) can0 0AA#0400090000000000
(1572802893.655557) can0 0A8#2200ABE9FEFFFBFF
(1572802893.655799) can0 0A7#16000000FDFFF9FF
(1572802893.656043) can0 0A6#03000100FEFF0000
(1572802893.656285) can0 0A5#C109000000005A02
(1572802893.656535) can0 0A4#0000000000000000
(1572802893.656763) can0 0A3#EEBDD71EEEB9071F
(1572802893.660462) can0 036#00
(1572802893.661111) can0 032#191B65011C0100
(1572802893.662962) can0 0C0#0000000000000000
(1572802893.663575) can0 0AD#0000000000000000
(1572802893.663819) can0 0AC#00000400EA010000
(1572802893.664069) can0 0AB#0000000000000000
(1572802893.664313) can0 0AA#0400090000000000
(1572802893.664553) can0 0A8#2200ABE901000000
(1572802893.664799) can0 0A7#190000000000F7FF
(1572802893.665043) can0 0A6#FEFF010003000000
(1572802893.665283) can0 0A5#C109000000005D02
(1572802893.665533) can0 0A4#0000000000000000
(1572802893.665762) can0 0A3#EEBDD71EEEB9071F
(1572802893.672581) can0 0AD#FFFF000000000000
(1572802893.672827) can0 0AC#00000100ED010000
(1572802893.673077) can0 0AB#0000000000000000
(1572802893.673321) can0 0AA#0400090000000000
(1572802893.673563) can0 0A8#2200ABE900000200
(1572802893.673809) can0 0A7#180000000000F7FF
(1572802893.674053) can0 0A6#0000FFFFFEFF0000
(1572802893.674291) can0 0A5#C109000000005C02
(1572802893.674541) can0 0A4#0000000000000000
(1572802893.674768) can0 0A3#EEBDD71EEEBD071F
(1572802893.675018) can0 0C0#0000000000000000
(1572802893.681578) can0 0AD#0000000000000000
(1572802893.681816) can0 0AE#1000B41911051820
(1572802893.682064) can0 0AC#00000100F0010000
(1572802893.682314) can0 0AB#0000000000000000
(1572802893.682558) can0 0AA#0400090000000000
(1572802893.682791) can0 0A9#9700FB00FF018704
(1572802893.683033) can0 0A8#2200ABE900000200
(1572802893.683279) can0 0A7#16000000FDFFFEFF
(1572802893.683523) can0 0A6#FEFF040000000000
(1572802893.683765) can0 0A5#C109000000005A02
(1572802893.684015) can0 0A4#0000000000000000
(1572802893.684241) can0 0A3#EDBDD71EEEBD071F
(1572802893.684473) can0 0A2#F0D8F0D865050000
(1572802893.684701) can0 0A1#BC0049083908F0D8
(1572802893.684933) can0 0A0#B300B600B500C200
(1572802893.685182) can0 0C0#0000000000000000
(1572802893.690576) can0 0AD#FFFF000000000000
(1572802893.690820) can0 0AC#00000200F3010000
(1572802893.691070) can0 0AB#0000000000000000
(1572802893.691314) can0 0AA#0400090000000000
(1572802893.691554) can0 0A8#2200ABE900000500
(1572802893.691798) can0 0A7#18000000FFFFFCFF
(1572802893.692046) can0 0A6#0000040000000000
(1572802893.692284) can0 0A5#C109000000005802
(1572802893.692534) can0 0A4#0000000000000000
(1572802893.692760) can0 0A3#EDBDD71EEEBD071F
(1572802893.693634) can0 0C0#0000000000000000
(1572802893.699578) can0 0AD#0100000000000000
(1572802893.699826) can0 0AC#00000000F6010000
(1572802893.700075) can0 0AB#0000000000000000
(1572802893.700319) can0 0AA#0400090000000000
(1572802893.700561) can0 0A8#2200ABE9FFFF0000
(1572802893.700805) can0 0A7#190000000000FCFF
(1572802893.701049) can0 0A6#0000FFFFFEFF0000
(1572802893.701287) can0 0A5#C209000000005902
(1572802893.701537) can0 0A4#0000000000000000
(1572802893.701765) can0 0A3#EEBDD71EEEBD071F
(1572802893.703420) can0 0C0#0000000000000000
(1572802893.708666) can0 0AD#FFFF000000000000
(1572802893.708914) can0 0AC#00000300F9010000
(1572802893.709165) can0 0AB#0000000000000000
(1572802893.709407) can0 0AA#0400090000000000
(1572802893.709645) can0 0A8#2200ABE9FCFF0600
(1572802893.709889) can0 0A7#18000000FDFFF9FF
(1572802893.710135) can0 0A6#0000F9FF00000000
(1572802893.710373) can0 0A5#C109000000005902
(1572802893.710623) can0 0A4#0000000000000000
(1572802893.710851) can0 0A3#EEBDD71EEEBD071F
(1572802893.713552) can0 0C0#0000000000000000
(1572802893.715250) can0 067#200000004D95AD13
(1572802893.717574) can0 0AD#0000000000000000
(1572802893.717818) can0 0AC#0000FEFFFC010000
(1572802893.718068) can0 0AB#0000000000000000
(1572802893.718312) can0 0AA#0400090000000000
(1572802893.718552) can0 0A8#2200ABE9FEFFFBFF
(1572802893.718797) can0 0A7#16000000FDFFFCFF
(1572802893.719043) can0 0A6#0300010000000000
(1572802893.719283) can0 0A5#C109000000005602
(1572802893.719533) can0 0A4#0000000000000000
(1572802893.719761) can0 0A3#EEBDD71EEEBD071F
(1572802893.723666) can0 0C0#0000000000000000
(1572802893.726577) can0 0AD#FFFF000000000000
(1572802893.726825) can0 0AC#0000FFFFFF010000
(1572802893.727075) can0 0AB#0000000000000000
(1572802893.727319) can0 0AA#0400090000000000
(1572802893.727563) can0 0A8#2200ABE90000FDFF
(1572802893.727805) can0 0A7#190000000200F7FF
(1572802893.728053) can0 0A6#00000100FEFF0000
(1572802893.728291) can0 0A5#C109000000005402
(1572802893.728541) can0 0A4#0000000000000000
(1572802893.728769) can0 0A3#EEBDD71EEEBD071F
(1572802893.729375) can0 036#00
(1572802893.730029) can0 032#191B68011C0100
(1572802893.733779) can0 0C0#0000000000000000
(1572802893.735579) can0 0AD#FFFF000000000000
(1572802893.735825) can0 0AC#0000FCFF02020000
(1572802893.736075) can0 0AB#0000000000000000
(1572802893.736319) can0 0AA#0400090000000000
(1572802893.736563) can0 0A8#2200ABE9FFFFF7FF
(1572802893.736807) can0 0A7#1A000000F8FF0000
(1572802893.737051) can0 0A6#03000400FBFF0000
(1572802893.737289) can0 0A5#C109000000005402
(1572802893.737539) can0 0A4#0000000000000000
(1572802893.737767) can0 0A3#EEBDD71EEEB9071F
(1572802893.743910) can0 0C0#0000000000000000
(1572802893.744578) can0 0AD#FFFF000000000000
(1572802893.744828) can0 0AC#0000000005020000
(1572802893.745078) can0 0AB#0000000000000000
(1572802893.745322) can0 0AA#0400090000000000
(1572802893.745562) can0 0A8#2200ABE903000100
(1572802893.745806) can0 0A7#19000000FFFFF7FF
(1572802893.746052) can0 0A6#FBFF010000000000
(1572802893.746290) can0 0A5#C109000000005802
(1572802893.746540) can0 0A4#0000000000000000
(1572802893.746768) can0 0A3#EEBDD71EEEB9071F
(1572802893.753575) can0 0AD#0000000000000000
(1572802893.753819) can0 0AC#0000FFFF08020000
(1572802893.754069) can0 0AB#0000000000000000
(1572802893.754313) can0 0AA#0400090000000000
(1572802893.754557) can0 0A8#2200ABE9FDFFFEFF
(1572802893.754799) can0 0A7#190000000200FCFF
(1572802893.755045) can0 0A6#0300FFFF00000000
(1572802893.755285) can0 0A5#C109000000005602
(1572802893.755535) can0 0A4#0000000000000000
(1572802893.755763) can0 0A3#EEBDD71EEEBD071F
(1572802893.756012) can0 0C0#0000000000000000
(1572802893.762576) can0 0AD#0000000000000000
(1572802893.762824) can0 0AC#0000FFFF0B020000
(1572802893.763074) can0 0AB#0000000000000000
(1572802893.763317) can0 0AA#0400090000000000
(1572802893.763561) can0 0A8#2200ABE90000FDFF
(1572802893.763805) can0 0A7#16000000FFFFF5FF
(1572802893.764051) can0 0A6#00000100FBFF0000
(1572802893.764289) can0 0A5#C109000000005702
(1572802893.764539) can0 0A4#0000000000000000
(1572802893.764765) can0 0A3#EDBDD71EEEBD071F
(1572802893.765014) can0 0C0#0000000000000000
(1572802893.771726) can0 0AD#FFFF000000000000
(1572802893.771972) can0 0AC#000000000E020000
(1572802893.772222) can0 0AB#0000000000000000
(1572802893.772466) can0 0AA#0400090000000000
(1572802893.772706) can0 0A8#2200ABE901000800
(1572802893.772950) can0 0A7#1A000000FDFFF7FF
(1572802893.773193) can0 0A6#FBFFFCFFFEFF0000
(1572802893.773435) can0 0A5#C109000000005A02
(1572802893.773685) can0 0A4#0000000000000000
(1572802893.773911) can0 0A3#EDBDD71EEEBD071F
(1572802893.774272) can0 0C0#0000000000000000
(1572802893.780640) can0 0AD#FFFF000000000000
(1572802893.780878) can0 0AE#1000B41911051820
(1572802893.781126) can0 0AC#0000000011020000
(1572802893.781376) can0 0AB#0000000000000000
(1572802893.781620) can0 0AA#0400090000000000
(1572802893.781854) can0 0A9#9700FB00FF018904
(1572802893.782094) can0 0A8#2200ABE901000000
(1572802893.782340) can0 0A7#18000000FDFFFCFF
(1572802893.782584) can0 0A6#FEFF010000000000
(1572802893.782822) can0 0A5#C109000000005C02
(1572802893.783071) can0 0A4#0000000000000000
(1572802893.783297) can0 0A3#EDBDD71EEEB9071F
(1572802893.783529) can0 0A2#F0D8F0D865050000
(1572802893.783757) can0 0A1#BC0049083908F0D8
(1572802893.783989) can0 0A0#B300B600B500C200
(1572802893.784619) can0 0C0#0000000000000000
(1572802893.789635) can0 0AD#0000000000000000
(1572802893.789881) can0 0AC#0000010014020000
(1572802893.790131) can0 0AB#0000000000000000
(1572802893.790375) can0 0AA#0400090000000000
(1572802893.790615) can0 0A8#2200ABE903000100
(1572802893.790859) can0 0A7#18000000F8FFFEFF
(1572802893.791101) can0 0A6#FBFF0100F8FF0000
(1572802893.791341) can0 0A5#C109000000005F02
(1572802893.791459) can0 036#00
(1572802893.791709) can0 0A4#0000000000000000
(1572802893.791937) can0 0A3#EEBDD71EEEB9071F
(1572802893.792154) can0 032#191B6801160100
(1572802893.794505) can0 0C0#0000000000000000
(1572802893.798637) can0 0AD#FFFF000000000000
(1572802893.798883) can0 0AC#0000000017020000
(1572802893.799133) can0 0AB#0000000000000000
(1572802893.799377) can0 0AA#0400090000000000
(1572802893.799619) can0 0A8#2200ABE9FFFF0000
(1572802893.799861) can0 0A7#190000000200F7FF
(1572802893.800105) can0 0A6#0000FFFFFEFF0000
(1572802893.800344) can0 0A5#C109000000005D02
(1572802893.800594) can0 0A4#0000000000000000
(1572802893.800822) can0 0A3#EEBDD71EEEBD071F
(1572802893.804597) can0 0C0#0000000000000000
(1572802893.807635) can0 0AD#FFFF000000000000
(1572802893.807881) can0 0AC#000000001A020000
(1572802893.808131) can0 0AB#0000000000000000
(1572802893.808375) can0 0AA#0400090000000000
(1572802893.808617) can0 0A8#2200ABE9FFFF0000
(1572802893.808861) can0 0A7#1A000000FDFFF9FF
(1572802893.809111) can0 0A6#0000FFFF00000000
(1572802893.809350) can0 0A5#C109000000005D02
(1572802893.809600) can0 0A4#0000000000000000
(1572802893.809828) can0 0A3#EEBDD71EEEBD071F
(1572802893.814728) can0 0C0#0000000000000000
(1572802893.816636) can0 0AD#0000000000000000
(1572802893.816880) can0 0AC#0000FFFF1D020000
(1572802893.817130) can0 0AB#0000000000000000
(1572802893.817374) can0 0AA#0400090000000000
(1572802893.817614) can0 0A8#2200ABE902000500
(1572802893.817858) can0 0A7#18000000F3FFF9FF
(1572802893.818104) can0 0A6#FBFFFFFFFBFF0000
(1572802893.818341) can0 0A5#C109000000005C02
(1572802893.818591) can0 0A4#0000000000000000
(1572802893.818819) can0 0A3#EEBDD71EEEBD071F
(1572802893.824813) can0 0C0#0000000000000000
(1572802893.825633) can0 0AD#FFFF000000000000
(1572802893.825881) can0 0AC#0000000020020000
(1572802893.826131) can0 0AB#0000000000000000
(1572802893.826375) can0 0AA#0400090000000000
(1572802893.826617) can0 0A8#2200ABE9FFFF0000
(1572802893.826863) can0 0A7#190000000000F7FF
(1572802893.827113) can0 0A6#0000FFFF00000000
(1572802893.827351) can0 0A5#C109000000006102
(1572802893.827601) can0 0A4#0000000000000000
(1572802893.827827) can0 0A3#EDBDD71EEEBD071F
(1572802893.834717) can0 0AD#0000000000000000
(1572802893.834965) can0 0AC#0000010023020000
(1572802893.835214) can0 0AB#0000000000000000
(1572802893.835458) can0 0AA#0400090000000000
(1572802893.835700) can0 0A8#2200ABE9FEFF0200
(1572802893.835948) can0 0A7#18000000FFFFF9FF
(1572802893.836194) can0 0A6#0000FCFF00000000
(1572802893.836432) can0 0A5#C109000000005902
(1572802893.836682) can0 0A4#0000000000000000
(1572802893.836908) can0 0A3#EDBDD71EEEBD071F
(1572802893.837157) can0 0C0#0000000000000000
(1572802893.843631) can0 0AD#0000000000000000
(1572802893.843877) can0 0AC#0000010026020000
(1572802893.844127) can0 0AB#0000000000000000
(1572802893.844370) can0 0AA#0400090000000000
(1572802893.844610) can0 0A8#2200ABE90000FEFF
